;$FILEVERSION=1.1
;$STARTTIME=45766.0298052894
;
;   Start time: 4/19/2025 00:42:55.177.0
;   Generated by PCAN-View v5.3.2.952
;
;   Message Number
;   |         Time Offset (ms)
;   |         |        Type
;   |         |        |        ID (hex)
;   |         |        |        |     Data Length
;   |         |        |        |     |   Data Bytes (hex) ...
;   |         |        |        |     |   |
;---+--   ----+----  --+--  ----+---  +  -+ -- -- -- -- -- -- --
     1)      8226.0  Rx     00002902  8  FF FC 00 00 FF FC 17 00 
     2)      8227.1  Rx     00002901  8  FC 67 00 00 FF FC 18 00 
     3)      8227.9  Rx     00000801  8  00 00 00 7F FF 80 08 00 
     4)      8228.1  Rx     00000802  8  00 00 00 7F FF 80 08 00 
     5)      8228.2  Rx     00002902  8  FF FC 00 00 FF FE 17 00 
     6)      8228.3  Rx         0003  8  F6 00 00 F6 00 00 00 00 
     7)      8228.5  Rx         0004  8  00 00 00 00 00 00 00 00 
     8)      8228.6  Rx         0005  8  00 00 00 00 00 00 03 31 
     9)      8229.2  Rx     00002901  8  FC 67 00 00 FF FE 18 00 
    10)      8230.0  Rx     00002902  8  FF FC 00 00 FF FB 17 00 
    11)      8231.2  Rx     00002901  8  FC 67 00 00 FF FF 18 00 
    12)      8231.9  Rx     00000801  8  00 00 00 7F FF 80 08 00 
    13)      8232.1  Rx     00000802  8  00 00 00 7F FF 80 08 00 
    14)      8232.2  Rx     00002902  8  FF FC 00 00 FF FC 17 00 
    15)      8232.4  Rx         0003  8  F6 00 00 F6 00 00 00 00 
    16)      8232.5  Rx         0004  8  00 00 00 00 00 00 00 00 
    17)      8232.6  Rx         0005  8  00 00 00 00 00 00 03 33 
    18)      8233.2  Rx     00002901  8  FC 67 00 00 FF FD 18 00 
    19)      8234.0  Rx     00002902  8  FF FC 00 00 FF FF 17 00 
    20)      8235.2  Rx     00002901  8  FC 67 00 00 FF FA 18 00 
    21)      8235.9  Rx     00000801  8  00 00 00 7F FF 80 08 00 
    22)      8236.1  Rx     00000802  8  00 00 00 7F FF 80 08 00 
    23)      8236.2  Rx     00002902  8  FF FC 00 00 FF FB 17 00 
    24)      8236.3  Rx         0003  8  F6 00 00 F6 00 00 00 00 
    25)      8236.5  Rx         0004  8  00 00 00 00 00 00 00 00 
    26)      8236.6  Rx         0005  8  00 00 00 00 00 00 03 30 
    27)      8237.1  Rx     00002901  8  FC 67 00 00 00 00 18 00 
    28)      8238.0  Rx     00002902  8  FF FC 00 00 FF FE 17 00 
    29)      8239.1  Rx     00002901  8  FC 67 00 00 FF FC 18 00 
    30)      8239.9  Rx     00000801  8  00 00 00 7F FF 80 08 00 
    31)      8240.1  Rx     00000802  8  00 00 00 7F FF 80 08 00 
    32)      8240.2  Rx     00002902  8  FF FC 00 00 FF FC 17 00 
    33)      8240.3  Rx         0003  8  F6 00 00 F6 00 00 00 00 
    34)      8240.5  Rx         0004  8  00 00 00 00 00 00 00 00 
    35)      8240.6  Rx         0005  8  00 00 00 00 00 00 03 2F 
    36)      8241.1  Rx     00002901  8  FC 67 00 00 FF FE 18 00 
    37)      8242.0  Rx     00002902  8  FF FC 00 00 FF F9 17 00 
    38)      8243.1  Rx     00002901  8  FC 67 00 00 FF FB 18 00 
    39)      8243.9  Rx     00000801  8  00 00 00 7F FF 80 08 00 
    40)      8244.1  Rx     00000802  8  00 00 00 7F FF 80 08 00 
    41)      8244.2  Rx     00002902  8  FF FC 00 00 FF FD 17 00 
    42)      8244.3  Rx         0003  8  F6 00 00 F6 00 00 00 00 
    43)      8244.5  Rx         0004  8  00 00 00 00 00 00 00 00 
    44)      8244.6  Rx         0005  8  00 00 00 00 00 00 03 30 
    45)      8245.2  Rx     00002901  8  FC 67 00 00 FF FE 18 00 
    46)      8246.0  Rx     00002902  8  FF FC 00 00 FF FD 17 00 
    47)      8247.2  Rx     00002901  8  FC 67 00 00 FF F9 18 00 
    48)      8247.9  Rx     00000801  8  00 00 00 7F FF 80 08 00 
    49)      8248.1  Rx     00000802  8  00 00 00 7F FF 80 08 00 
    50)      8248.2  Rx     00002902  8  FF FC 00 00 FF FE 17 00 
    51)      8248.4  Rx         0003  8  F6 00 00 F6 00 00 00 00 
    52)      8248.5  Rx         0004  8  00 00 00 00 00 00 00 00 
    53)      8248.6  Rx         0005  8  00 00 00 00 00 00 03 2F 
    54)      8249.1  Rx     00002901  8  FC 67 00 00 00 01 18 00 
    55)      8250.0  Rx     00002902  8  FF FC 00 00 FF FD 17 00 
    56)      8251.1  Rx     00002901  8  FC 67 00 00 FF F9 18 00 
    57)      8251.9  Rx     00000801  8  00 00 00 7F FF 80 08 00 
    58)      8252.1  Rx     00000802  8  00 00 00 7F FF 80 08 00 
    59)      8252.2  Rx     00002902  8  FF FC 00 00 FF FE 17 00 
    60)      8252.4  Rx         0003  8  F6 00 00 F6 00 00 00 00 
    61)      8252.5  Rx         0004  8  00 00 00 00 00 00 00 00 
    62)      8252.6  Rx         0005  8  00 00 00 00 00 00 03 33 
    63)      8253.2  Rx     00002901  8  FC 67 00 00 00 00 18 00 
    64)      8254.0  Rx     00002902  8  FF FC 00 00 FF FC 17 00 
    65)      8255.1  Rx     00002901  8  FC 67 00 00 FF FC 18 00 
    66)      8255.9  Rx     00000801  8  00 00 00 7F FF 80 08 00 
    67)      8256.1  Rx     00000802  8  00 00 00 7F FF 80 08 00 
    68)      8256.2  Rx     00002902  8  FF FC 00 00 FF FD 17 00 
    69)      8256.3  Rx         0003  8  F6 00 00 F6 00 00 00 00 
    70)      8256.5  Rx         0004  8  00 00 00 00 00 00 00 00 
    71)      8256.6  Rx         0005  8  00 00 00 00 00 00 03 31 
    72)      8257.1  Rx     00002901  8  FC 67 00 00 FF FE 18 00 
    73)      8258.0  Rx     00002902  8  FF FC 00 00 FF FD 17 00 
    74)      8259.1  Rx     00002901  8  FC 67 00 00 FF FD 18 00 
    75)      8259.9  Rx     00000801  8  00 00 00 7F FF 80 08 00 
    76)      8260.1  Rx     00000802  8  00 00 00 7F FF 80 08 00 
    77)      8260.2  Rx     00002902  8  FF FC 00 00 FF FD 17 00 
    78)      8260.3  Rx         0003  8  F6 00 00 F6 00 00 00 00 
    79)      8260.5  Rx         0004  8  00 00 00 00 00 00 00 00 
    80)      8260.6  Rx         0005  8  00 00 00 00 00 00 03 30 
    81)      8261.2  Rx     00002901  8  FC 67 00 00 FF FF 18 00 
    82)      8262.0  Rx     00002902  8  FF FC 00 00 FF F9 17 00 
    83)      8263.2  Rx     00002901  8  FC 67 00 00 FF FC 18 00 
    84)      8263.9  Rx     00000801  8  00 00 00 7F FF 80 08 00 
    85)      8264.1  Rx     00000802  8  00 00 00 7F FF 80 08 00 
    86)      8264.2  Rx     00002902  8  FF FC 00 00 FF FC 17 00 
    87)      8264.4  Rx         0003  8  F6 00 00 F6 00 00 00 00 
    88)      8264.5  Rx         0004  8  00 00 00 00 00 00 00 00 
    89)      8264.6  Rx         0005  8  00 00 00 00 00 00 03 2F 
    90)      8265.2  Rx     00002901  8  FC 67 00 00 FF FC 18 00 
    91)      8266.0  Rx     00002902  8  FF FC 00 00 FF FC 17 00 
    92)      8267.1  Rx     00002901  8  FC 67 00 00 FF FE 18 00 
    93)      8267.9  Rx     00000801  8  00 00 00 7F FF 80 08 00 
    94)      8268.1  Rx     00000802  8  00 00 00 7F FF 80 08 00 
    95)      8268.2  Rx     00002902  8  FF FC 00 00 FF FA 17 00 
    96)      8268.4  Rx         0003  8  F6 00 00 F6 00 00 00 00 
    97)      8268.5  Rx         0004  8  00 00 00 00 00 00 00 00 
    98)      8268.6  Rx         0005  8  00 00 00 00 00 00 03 31 
    99)      8269.2  Rx     00002901  8  FC 67 00 00 FF FC 18 00 
   100)      8270.0  Rx     00002902  8  FF FC 00 00 FF FF 17 00 
   101)      8271.1  Rx     00002901  8  FC 67 00 00 FF FC 18 00 
   102)      8271.9  Rx     00000801  8  00 00 00 7F FF 80 08 00 
   103)      8272.1  Rx     00000802  8  00 00 00 7F FF 80 08 00 
   104)      8272.2  Rx     00002902  8  FF FC 00 00 FF FB 17 00 
   105)      8272.3  Rx         0003  8  F6 00 00 F6 00 00 00 00 
   106)      8272.5  Rx         0004  8  00 00 00 00 00 00 00 00 
   107)      8272.6  Rx         0005  8  00 00 00 00 00 00 03 30 
   108)      8273.1  Rx     00002901  8  FC 67 00 00 FF FF 18 00 
   109)      8274.0  Rx     00002902  8  FF FC 00 00 FF FF 17 00 
   110)      8275.1  Rx     00002901  8  FC 67 00 00 FF FE 18 00 
   111)      8275.9  Rx     00000801  8  00 00 00 7F FF 80 08 00 
   112)      8276.1  Rx     00000802  8  00 00 00 7F FF 80 08 00 
   113)      8276.2  Rx     00002902  8  FF FC 00 00 FF FE 17 00 
   114)      8276.3  Rx         0003  8  F6 00 00 F6 00 00 00 00 
   115)      8276.5  Rx         0004  8  00 00 00 00 00 00 00 00 
   116)      8276.6  Rx         0005  8  00 00 00 00 00 00 03 2F 
   117)      8277.2  Rx     00002901  8  FC 67 00 00 FF FF 18 00 
   118)      8278.0  Rx     00002902  8  FF FC 00 00 FF FE 17 00 
   119)      8279.2  Rx     00002901  8  FC 67 00 00 00 00 18 00 
   120)      8279.9  Rx     00000801  8  00 00 00 7F FF 80 08 00 
   121)      8280.1  Rx     00000802  8  00 00 00 7F FF 80 08 00 
   122)      8280.2  Rx     00002902  8  FF FC 00 00 FF FA 17 00 
   123)      8280.4  Rx         0003  8  F6 00 00 F6 00 00 00 00 
   124)      8280.5  Rx         0004  8  00 00 00 00 00 00 00 00 
   125)      8280.6  Rx         0005  8  00 00 00 00 00 00 03 33 
   126)      8281.2  Rx     00002901  8  FC 67 00 00 FF FE 18 00 
   127)      8282.0  Rx     00002902  8  FF FC 00 00 FF FB 17 00 
   128)      8283.1  Rx     00002901  8  FC 67 00 00 FF FC 18 00 
   129)      8283.9  Rx     00000801  8  00 00 00 7F FF 80 08 00 
   130)      8284.1  Rx     00000802  8  00 00 00 7F FF 80 08 00 
   131)      8284.2  Rx     00002902  8  FF FC 00 00 FF FC 17 00 
   132)      8284.4  Rx         0003  8  F6 00 00 F6 00 00 00 00 
   133)      8284.5  Rx         0004  8  00 00 00 00 00 00 00 00 
   134)      8284.6  Rx         0005  8  00 00 00 00 00 00 03 2F 
   135)      8285.1  Rx     00002901  8  FC 67 00 00 00 00 18 00 
   136)      8286.0  Rx     00002902  8  FF FC 00 00 FF FD 17 00 
   137)      8287.1  Rx     00002901  8  FC 67 00 00 FF FA 18 00 
   138)      8287.9  Rx     00000801  8  00 00 00 7F FF 80 08 00 
   139)      8288.1  Rx     00000802  8  00 00 00 7F FF 80 08 00 
   140)      8288.2  Rx     00002902  8  FF FC 00 00 FF FB 17 00 
   141)      8288.3  Rx         0003  8  F6 00 00 F6 00 00 00 00 
   142)      8288.5  Rx         0004  8  00 00 00 00 00 00 00 00 
   143)      8288.6  Rx         0005  8  00 00 00 00 00 00 03 31 
   144)      8289.1  Rx     00002901  8  FC 67 00 00 FF FC 18 00 
   145)      8290.0  Rx     00002902  8  FF FC 00 00 FF FB 17 00 
   146)      8291.1  Rx     00002901  8  FC 67 00 00 FF FC 18 00 
   147)      8291.9  Rx     00000801  8  00 00 00 7F FF 80 08 00 
   148)      8292.1  Rx     00000802  8  00 00 00 7F FF 80 08 00 
   149)      8292.2  Rx     00002902  8  FF FC 00 00 FF FB 17 00 
   150)      8292.3  Rx         0003  8  F6 00 00 F6 00 00 00 00 
   151)      8292.5  Rx         0004  8  00 00 00 00 00 00 00 00 
   152)      8292.6  Rx         0005  8  00 00 00 00 00 00 03 30 
   153)      8293.2  Rx     00002901  8  FC 67 00 00 FF FF 18 00 
   154)      8294.0  Rx     00002902  8  FF FC 00 00 FF FA 17 00 
   155)      8295.2  Rx     00002901  8  FC 67 00 00 FF FD 18 00 
   156)      8295.9  Rx     00000801  8  00 00 00 7F FF 80 08 00 
   157)      8296.1  Rx     00000802  8  00 00 00 7F FF 80 08 00 
   158)      8296.2  Rx     00002902  8  FF FC 00 00 FF FB 17 00 
   159)      8296.4  Rx         0003  8  F6 00 00 F6 00 00 00 00 
   160)      8296.5  Rx         0004  8  00 00 00 00 00 00 00 00 
   161)      8296.6  Rx         0005  8  00 00 00 00 00 00 03 2F 
   162)      8297.2  Rx     00002901  8  FC 67 00 00 FF FF 18 00 
   163)      8298.0  Rx     00002902  8  FF FC 00 00 FF FA 17 00 
   164)      8299.2  Rx     00002901  8  FC 67 00 00 FF FD 18 00 
   165)      8299.9  Rx     00000801  8  00 00 00 7F FF 80 08 00 
   166)      8300.1  Rx     00000802  8  00 00 00 7F FF 80 08 00 
   167)      8300.2  Rx     00002902  8  FF FC 00 00 FF FD 17 00 
   168)      8300.4  Rx         0003  8  F6 00 00 F6 00 00 00 00 
   169)      8300.5  Rx         0004  8  00 00 00 00 00 00 00 00 
   170)      8300.6  Rx         0005  8  00 00 00 00 00 00 03 31 
   171)      8301.1  Rx     00002901  8  FC 67 00 00 FF FD 18 00 
   172)      8302.0  Rx     00002902  8  FF FC 00 00 FF FE 17 00 
   173)      8303.1  Rx     00002901  8  FC 67 00 00 FF FD 18 00 
   174)      8303.9  Rx     00000801  8  00 00 00 7F FF 80 08 00 
   175)      8304.1  Rx     00000802  8  00 00 00 7F FF 80 08 00 
   176)      8304.2  Rx     00002902  8  FF FC 00 00 FF FE 17 00 
   177)      8304.3  Rx         0003  8  F6 00 00 F6 00 00 00 00 
   178)      8304.5  Rx         0004  8  00 00 00 00 00 00 00 00 
   179)      8304.6  Rx         0005  8  00 00 00 00 00 00 03 30 
   180)      8305.1  Rx     00002901  8  FC 67 00 00 FF FB 18 00 
   181)      8306.0  Rx     00002902  8  FF FC 00 00 FF FC 17 00 
   182)      8307.1  Rx     00002901  8  FC 67 00 00 FF FC 18 00 
   183)      8307.9  Rx     00000801  8  00 00 00 7F FF 80 08 00 
   184)      8308.1  Rx     00000802  8  00 00 00 7F FF 80 08 00 
   185)      8308.2  Rx     00002902  8  FF FC 00 00 FF FC 17 00 
   186)      8308.3  Rx         0003  8  F6 00 00 F6 00 00 00 00 
   187)      8308.5  Rx         0004  8  00 00 00 00 00 00 00 00 
   188)      8308.6  Rx         0005  8  00 00 00 00 00 00 03 31 
   189)      8309.2  Rx     00002901  8  FC 67 00 00 FF FF 18 00 
   190)      8310.0  Rx     00002902  8  FF FC 00 00 FF FD 17 00 
   191)      8311.2  Rx     00002901  8  FC 67 00 00 FF FC 18 00 
   192)      8311.9  Rx     00000801  8  00 00 00 7F FF 80 08 00 
   193)      8312.1  Rx     00000802  8  00 00 00 7F FF 80 08 00 
   194)      8312.2  Rx     00002902  8  FF FC 00 00 FF FA 17 00 
   195)      8312.4  Rx         0003  8  F6 00 00 F6 00 00 00 00 
   196)      8312.5  Rx         0004  8  00 00 00 00 00 00 00 00 
   197)      8312.6  Rx         0005  8  00 00 00 00 00 00 03 30 
   198)      8313.2  Rx     00002901  8  FC 67 00 00 00 00 18 00 
   199)      8314.0  Rx     00002902  8  FF FC 00 00 FF FB 17 00 
   200)      8315.2  Rx     00002901  8  FC 67 00 00 FF FC 18 00 
   201)      8315.9  Rx     00000801  8  00 00 00 7F FF 80 08 00 
   202)      8316.1  Rx     00000802  8  00 00 00 7F FF 80 08 00 
   203)      8316.2  Rx     00002902  8  FF FC 00 00 FF FC 17 00 
   204)      8316.3  Rx         0003  8  F6 00 00 F6 00 00 00 00 
   205)      8316.5  Rx         0004  8  00 00 00 00 00 00 00 00 
   206)      8316.6  Rx         0005  8  00 00 00 00 00 00 03 2E 
   207)      8317.1  Rx     00002901  8  FC 67 00 00 FF FB 18 00 
   208)      8318.0  Rx     00002902  8  FF FC 00 00 FF FC 17 00 
   209)      8319.1  Rx     00002901  8  FC 67 00 00 FF FE 18 00 
   210)      8319.9  Rx     00000801  8  00 00 00 7F FF 80 08 00 
   211)      8320.1  Rx     00000802  8  00 00 00 7F FF 80 08 00 
   212)      8320.2  Rx     00002902  8  FF FC 00 00 FF FD 17 00 
   213)      8320.3  Rx         0003  8  F6 00 00 F6 00 00 00 00 
   214)      8320.5  Rx         0004  8  00 00 00 00 00 00 00 00 
   215)      8320.6  Rx         0005  8  00 00 00 00 00 00 03 30 
   216)      8321.1  Rx     00002901  8  FC 67 00 00 FF FE 18 00 
   217)      8322.0  Rx     00002902  8  FF FC 00 00 FF FD 17 00 
   218)      8323.1  Rx     00002901  8  FC 67 00 00 FF FD 18 00 
   219)      8323.9  Rx     00000801  8  00 00 00 7F FF 80 08 00 
   220)      8324.1  Rx     00000802  8  00 00 00 7F FF 80 08 00 
   221)      8324.2  Rx     00002902  8  FF FC 00 00 FF FD 17 00 
   222)      8324.3  Rx         0003  8  F6 00 00 F6 00 00 00 00 
   223)      8324.5  Rx         0004  8  00 00 00 00 00 00 00 00 
   224)      8324.6  Rx         0005  8  00 00 00 00 00 00 03 2F 
   225)      8325.2  Rx     00002901  8  FC 67 00 00 00 00 18 00 
   226)      8326.0  Rx     00002902  8  FF FC 00 00 FF FA 17 00 
   227)      8327.2  Rx     00002901  8  FC 67 00 00 FF FB 18 00 
   228)      8327.9  Rx     00000801  8  00 00 00 7F FF 80 08 00 
   229)      8328.1  Rx     00000802  8  00 00 00 7F FF 80 08 00 
   230)      8328.2  Rx     00002902  8  FF FC 00 00 FF F9 17 00 
   231)      8328.4  Rx         0003  8  F6 00 00 F6 00 00 00 00 
   232)      8328.5  Rx         0004  8  00 00 00 00 00 00 00 00 
   233)      8328.6  Rx         0005  8  00 00 00 00 00 00 03 30 
   234)      8329.2  Rx     00002901  8  FC 67 00 00 FF FD 18 00 
   235)      8330.0  Rx     00002902  8  FF FC 00 00 FF FB 17 00 
   236)      8331.2  Rx     00002901  8  FC 67 00 00 FF FB 18 00 
   237)      8331.9  Rx     00000801  8  00 00 00 7F FF 80 08 00 
   238)      8332.1  Rx     00000802  8  00 00 00 7F FF 80 08 00 
   239)      8332.2  Rx     00002902  8  FF FC 00 00 FF FB 17 00 
   240)      8332.3  Rx         0003  8  F6 00 00 F6 00 00 00 00 
   241)      8332.5  Rx         0004  8  00 00 00 00 00 00 00 00 
   242)      8332.6  Rx         0005  8  00 00 00 00 00 00 03 2F 
   243)      8333.1  Rx     00002901  8  FC 67 00 00 FF FE 18 00 
   244)      8334.0  Rx     00002902  8  FF FC 00 00 FF F9 17 00 
   245)      8335.1  Rx     00002901  8  FC 67 00 00 FF FC 18 00 
   246)      8335.9  Rx     00000801  8  00 00 00 7F FF 80 08 00 
   247)      8336.1  Rx     00000802  8  00 00 00 7F FF 80 08 00 
   248)      8336.2  Rx     00002902  8  FF FC 00 00 FF FA 17 00 
   249)      8336.4  Rx         0003  8  F6 00 00 F6 00 00 00 00 
   250)      8336.5  Rx         0004  8  00 00 00 00 00 00 00 00 
   251)      8336.6  Rx         0005  8  00 00 00 00 00 00 03 30 
   252)      8337.1  Rx     00002901  8  FC 67 00 00 FF FE 18 00 
   253)      8338.0  Rx     00002902  8  FF FC 00 00 FF FD 17 00 
   254)      8339.1  Rx     00002901  8  FC 67 00 00 FF FB 18 00 
   255)      8339.9  Rx     00000801  8  00 00 00 7F FF 80 08 00 
   256)      8340.1  Rx     00000802  8  00 00 00 7F FF 80 08 00 
   257)      8340.2  Rx     00002902  8  FF FC 00 00 FF FC 17 00 
   258)      8340.3  Rx         0003  8  F6 00 00 F6 00 00 00 00 
   259)      8340.5  Rx         0004  8  00 00 00 00 00 00 00 00 
   260)      8340.6  Rx         0005  8  00 00 00 00 00 00 03 2E 
   261)      8341.2  Rx     00002901  8  FC 67 00 00 FF FD 18 00 
   262)      8342.0  Rx     00002902  8  FF FC 00 00 FF FB 17 00 
   263)      8343.2  Rx     00002901  8  FC 67 00 00 FF FB 18 00 
   264)      8343.9  Rx     00000801  8  00 00 00 7F FF 80 08 00 
   265)      8344.1  Rx     00000802  8  00 00 00 7F FF 80 08 00 
   266)      8344.2  Rx     00002902  8  FF FC 00 00 FF FE 17 00 
   267)      8344.4  Rx         0003  8  F6 00 00 F6 00 00 00 00 
   268)      8344.5  Rx         0004  8  00 00 00 00 00 00 00 00 
   269)      8344.6  Rx         0005  8  00 00 00 00 00 00 03 2F 
   270)      8345.2  Rx     00002901  8  FC 67 00 00 00 00 18 00 
   271)      8346.0  Rx     00002902  8  FF FC 00 00 FF FE 17 00 
   272)      8347.1  Rx     00002901  8  FC 67 00 00 FF FA 18 00 
   273)      8347.9  Rx     00000801  8  00 00 00 7F FF 80 08 00 
   274)      8348.1  Rx     00000802  8  00 00 00 7F FF 80 08 00 
   275)      8348.2  Rx     00002902  8  FF FC 00 00 FF FC 17 00 
   276)      8348.4  Rx         0003  8  F6 00 00 F6 00 00 00 00 
   277)      8348.4  Rx         0004  8  00 00 00 00 00 00 00 00 
   278)      8348.6  Rx         0005  8  00 00 00 00 00 00 03 33 
   279)      8349.2  Rx     00002901  8  FC 67 00 00 FF FC 18 00 
   280)      8350.0  Rx     00002902  8  FF FC 00 00 FF FF 17 00 
   281)      8351.1  Rx     00002901  8  FC 67 00 00 FF FC 18 00 
   282)      8351.9  Rx     00000801  8  00 00 00 7F FF 80 08 00 
   283)      8352.1  Rx     00000802  8  00 00 00 7F FF 80 08 00 
   284)      8352.2  Rx     00002902  8  FF FC 00 00 FF FD 17 00 
   285)      8352.3  Rx         0003  8  F6 00 00 F6 00 00 00 00 
   286)      8352.5  Rx         0004  8  00 00 00 00 00 00 00 00 
   287)      8352.6  Rx         0005  8  00 00 00 00 00 00 03 2E 
   288)      8353.1  Rx     00002901  8  FC 67 00 00 FF FE 18 00 
   289)      8354.0  Rx     00002902  8  FF FC 00 00 FF F9 17 00 
   290)      8355.1  Rx     00002901  8  FC 67 00 00 FF FD 18 00 
   291)      8355.9  Rx     00000801  8  00 00 00 7F FF 80 08 00 
   292)      8356.1  Rx     00000802  8  00 00 00 7F FF 80 08 00 
   293)      8356.2  Rx     00002902  8  FF FC 00 00 FF F9 17 00 
   294)      8356.3  Rx         0003  8  F6 00 00 F6 00 00 00 00 
   295)      8356.5  Rx         0004  8  00 00 00 00 00 00 00 00 
   296)      8356.6  Rx         0005  8  00 00 00 00 00 00 03 2F 
   297)      8357.2  Rx     00002901  8  FC 67 00 00 FF FE 18 00 
   298)      8358.0  Rx     00002902  8  FF FC 00 00 FF FC 17 00 
   299)      8359.2  Rx     00002901  8  FC 67 00 00 FF FE 18 00 
   300)      8359.9  Rx     00000801  8  00 00 00 7F FF 80 08 00 
   301)      8360.1  Rx     00000802  8  00 00 00 7F FF 80 08 00 
   302)      8360.2  Rx     00002902  8  FF FC 00 00 FF FD 17 00 
   303)      8360.4  Rx         0003  8  F6 00 00 F6 00 00 00 00 
   304)      8360.5  Rx         0004  8  00 00 00 00 00 00 00 00 
   305)      8360.6  Rx         0005  8  00 00 00 00 00 00 03 32 
   306)      8361.2  Rx     00002901  8  FC 67 00 00 FF FF 18 00 
   307)      8362.0  Rx     00002902  8  FF FC 00 00 FF FD 17 00 
   308)      8363.1  Rx     00002901  8  FC 67 00 00 FF FD 18 00 
   309)      8363.9  Rx     00000801  8  00 00 00 7F FF 80 08 00 
   310)      8364.1  Rx     00000802  8  00 00 00 7F FF 80 08 00 
   311)      8364.2  Rx     00002902  8  FF FC 00 00 FF FD 17 00 
   312)      8364.4  Rx         0003  8  F6 00 00 F6 00 00 00 00 
   313)      8364.4  Rx         0004  8  00 00 00 00 00 00 00 00 
   314)      8364.6  Rx         0005  8  00 00 00 00 00 00 03 30 
   315)      8365.2  Rx     00002901  8  FC 67 00 00 FF FB 18 00 
   316)      8366.0  Rx     00002902  8  FF FC 00 00 FF FC 17 00 
   317)      8367.1  Rx     00002901  8  FC 67 00 00 FF FC 18 00 
   318)      8367.9  Rx     00000801  8  00 00 00 7F FF 80 08 00 
   319)      8368.1  Rx     00000802  8  00 00 00 7F FF 80 08 00 
   320)      8368.2  Rx     00002902  8  FF FC 00 00 FF FA 17 00 
   321)      8368.3  Rx         0003  8  F6 00 00 F6 00 00 00 00 
   322)      8368.5  Rx         0004  8  00 00 00 00 00 00 00 00 
   323)      8368.6  Rx         0005  8  00 00 00 00 00 00 03 2E 
   324)      8369.1  Rx     00002901  8  FC 67 00 00 FF FF 18 00 
   325)      8370.0  Rx     00002902  8  FF FC 00 00 FF FB 17 00 
   326)      8371.1  Rx     00002901  8  FC 67 00 00 FF FE 18 00 
   327)      8371.9  Rx     00000801  8  00 00 00 7F FF 80 08 00 
   328)      8372.1  Rx     00000802  8  00 00 00 7F FF 80 08 00 
   329)      8372.2  Rx     00002902  8  FF FC 00 00 FF FC 17 00 
   330)      8372.3  Rx         0003  8  F6 00 00 F6 00 00 00 00 
   331)      8372.5  Rx         0004  8  00 00 00 00 00 00 00 00 
   332)      8372.6  Rx         0005  8  00 00 00 00 00 00 03 30 
   333)      8373.2  Rx     00002901  8  FC 67 00 00 FF FF 18 00 
   334)      8374.0  Rx     00002902  8  FF FC 00 00 FF F6 17 00 
   335)      8375.2  Rx     00002901  8  FC 67 00 00 FF FD 18 00 
   336)      8375.9  Rx     00000801  8  00 00 00 7F FF 80 08 00 
   337)      8376.1  Rx     00000802  8  00 00 00 7F FF 80 08 00 
   338)      8376.2  Rx     00002902  8  FF FC 00 00 00 00 17 00 
   339)      8376.4  Rx         0003  8  F6 00 00 F6 00 00 00 00 
   340)      8376.5  Rx         0004  8  00 00 00 00 00 00 00 00 
   341)      8376.6  Rx         0005  8  00 00 00 00 00 00 03 2E 
   342)      8377.2  Rx     00002901  8  FC 67 00 00 FF FF 18 00 
   343)      8378.0  Rx     00002902  8  FF FC 00 00 FF FE 17 00 
   344)      8379.1  Rx     00002901  8  FC 67 00 00 FF FB 18 00 
   345)      8379.9  Rx     00000801  8  00 00 00 7F FF 80 08 00 
   346)      8380.1  Rx     00000802  8  00 00 00 7F FF 80 08 00 
   347)      8380.2  Rx     00002902  8  FF FC 00 00 FF FC 17 00 
   348)      8380.4  Rx         0003  8  F6 00 00 F6 00 00 00 00 
   349)      8380.5  Rx         0004  8  00 00 00 00 00 00 00 00 
   350)      8380.6  Rx         0005  8  00 00 00 00 00 00 03 30 
   351)      8381.1  Rx     00002901  8  FC 67 00 00 FF FD 18 00 
   352)      8382.0  Rx     00002902  8  FF FC 00 00 FF FB 17 00 
   353)      8383.1  Rx     00002901  8  FC 67 00 00 FF FC 18 00 
   354)      8383.9  Rx     00000801  8  00 00 00 7F FF 80 08 00 
   355)      8384.1  Rx     00000802  8  00 00 00 7F FF 80 08 00 
   356)      8384.2  Rx     00002902  8  FF FC 00 00 FF FB 17 00 
   357)      8384.3  Rx         0003  8  F6 00 00 F6 00 00 00 00 
   358)      8384.5  Rx         0004  8  00 00 00 00 00 00 00 00 
   359)      8384.6  Rx         0005  8  00 00 00 00 00 00 03 2E 
   360)      8385.1  Rx     00002901  8  FC 67 00 00 FF FE 18 00 
   361)      8386.0  Rx     00002902  8  FF FC 00 00 FF FE 17 00 
   362)      8387.1  Rx     00002901  8  FC 67 00 00 FF FD 18 00 
   363)      8387.9  Rx     00000801  8  00 00 00 7F FF 80 08 00 
   364)      8388.1  Rx     00000802  8  00 00 00 7F FF 80 08 00 
   365)      8388.2  Rx     00002902  8  FF FC 00 00 FF FD 17 00 
