;$FILEVERSION=1.1
;$STARTTIME=45765.9414440278
;
;   Start time: 4/18/2025 22:35:40.764.0
;   Generated by PCAN-View v5.3.2.952
;
;   Message Number
;   |         Time Offset (ms)
;   |         |        Type
;   |         |        |        ID (hex)
;   |         |        |        |     Data Length
;   |         |        |        |     |   Data Bytes (hex) ...
;   |         |        |        |     |   |
;---+--   ----+----  --+--  ----+---  +  -+ -- -- -- -- -- -- --
     1)         0.8  Rx     00002901  8  FC 78 00 00 00 03 23 00 
     2)         0.9  Rx     00002902  8  FF FB 00 00 FF FF 22 00 
     3)         2.0  Rx     00000801  8  00 00 00 7F FF 80 08 00 
     4)         2.2  Rx     00000802  8  00 00 00 7F FF 80 08 00 
     5)         2.3  Rx         0003  8  F6 30 00 F6 30 00 00 00 
     6)         2.5  Rx         0004  8  00 00 00 00 00 00 00 00 
     7)         2.6  Rx         0005  8  00 00 00 00 00 00 02 9F 
     8)         2.8  Rx     00002901  8  FC 78 00 00 00 07 23 00 
     9)         2.9  Rx     00002902  8  FF FB 00 00 00 07 22 00 
    10)         4.8  Rx     00002901  8  FC 78 00 00 00 03 23 00 
    11)         4.9  Rx     00002902  8  FF FB 00 00 00 01 22 00 
    12)         6.0  Rx     00000801  8  00 00 00 7F FF 80 08 00 
    13)         6.2  Rx     00000802  8  00 00 00 7F FF 80 08 00 
    14)         6.3  Rx         0003  8  F6 30 00 F6 30 00 00 00 
    15)         6.4  Rx         0004  8  00 00 00 00 00 00 00 00 
    16)         6.6  Rx         0005  8  00 00 00 00 00 00 02 A0 
    17)         6.8  Rx     00002901  8  FC 78 00 00 00 07 23 00 
    18)         6.9  Rx     00002902  8  FF FB 00 00 00 05 22 00 
    19)         8.8  Rx     00002901  8  FC 78 00 00 00 01 23 00 
    20)         9.0  Rx     00002902  8  FF FB 00 00 FF FD 22 00 
    21)        10.1  Rx     00000801  8  00 00 00 7F FF 80 08 00 
    22)        10.2  Rx     00000802  8  00 00 00 7F FF 80 08 00 
    23)        10.3  Rx         0003  8  F6 30 00 F6 30 00 00 00 
    24)        10.4  Rx         0004  8  00 00 00 00 00 00 00 00 
    25)        10.6  Rx         0005  8  00 00 00 00 00 00 02 A0 
    26)        10.8  Rx     00002901  8  FC 78 00 00 00 05 23 00 
    27)        11.0  Rx     00002902  8  FF FB 00 00 00 04 22 00 
    28)        12.8  Rx     00002901  8  FC 78 00 00 00 00 23 00 
    29)        13.0  Rx     00002902  8  FF FB 00 00 00 00 22 00 
    30)        14.1  Rx     00000801  8  00 00 00 7F FF 80 08 00 
    31)        14.2  Rx     00000802  8  00 00 00 7F FF 80 08 00 
    32)        14.3  Rx         0003  8  F6 30 00 F6 30 00 00 00 
    33)        14.5  Rx         0004  8  00 00 00 00 00 00 00 00 
    34)        14.6  Rx         0005  8  00 00 00 00 00 00 02 9F 
    35)        14.8  Rx     00002901  8  FC 78 00 00 00 07 23 00 
    36)        15.0  Rx     00002902  8  FF FB 00 00 00 05 22 00 
    37)        16.8  Rx     00002901  8  FC 78 00 00 00 02 23 00 
    38)        16.9  Rx     00002902  8  FF FB 00 00 00 00 22 00 
    39)        18.1  Rx     00000801  8  00 00 00 7F FF 80 08 00 
    40)        18.2  Rx     00000802  8  00 00 00 7F FF 80 08 00 
    41)        18.3  Rx         0003  8  F6 30 00 F6 30 00 00 00 
    42)        18.5  Rx         0004  8  00 00 00 00 00 00 00 00 
    43)        18.6  Rx         0005  8  00 00 00 00 00 00 02 A0 
    44)        18.8  Rx     00002901  8  FC 78 00 00 00 06 23 00 
    45)        19.0  Rx     00002902  8  FF FB 00 00 00 06 22 00 
    46)        20.8  Rx     00002901  8  FC 78 00 00 00 01 23 00 
    47)        20.9  Rx     00002902  8  FF FB 00 00 FF FF 22 00 
    48)        22.0  Rx     00000801  8  00 00 00 7F FF 80 08 00 
    49)        22.2  Rx     00000802  8  00 00 00 7F FF 80 08 00 
    50)        22.3  Rx         0003  8  F6 30 00 F6 30 00 00 00 
    51)        22.5  Rx         0004  8  00 00 00 00 00 00 00 00 
    52)        22.6  Rx         0005  8  00 00 00 00 00 00 02 A0 
    53)        22.8  Rx     00002901  8  FC 78 00 00 00 05 23 00 
    54)        22.9  Rx     00002902  8  FF FB 00 00 00 04 22 00 
    55)        24.8  Rx     00002901  8  FC 78 00 00 00 02 23 00 
    56)        25.0  Rx     00002902  8  FF FB 00 00 00 05 22 00 
    57)        26.1  Rx     00000801  8  00 00 00 7F FF 80 08 00 
    58)        26.2  Rx     00000802  8  00 00 00 7F FF 80 08 00 
    59)        26.3  Rx         0003  8  F6 30 00 F6 30 00 00 00 
    60)        26.4  Rx         0004  8  00 00 00 00 00 00 00 00 
    61)        26.6  Rx         0005  8  00 00 00 00 00 00 02 A1 
    62)        26.8  Rx     00002901  8  FC 78 00 00 00 04 23 00 
    63)        27.0  Rx     00002902  8  FF FB 00 00 00 03 22 00 
    64)        28.8  Rx     00002901  8  FC 78 00 00 00 03 23 00 
    65)        29.0  Rx     00002902  8  FF FB 00 00 00 01 22 00 
    66)        30.1  Rx     00000801  8  00 00 00 7F FF 80 08 00 
    67)        30.2  Rx     00000802  8  00 00 00 7F FF 80 08 00 
    68)        30.3  Rx         0003  8  F6 30 00 F6 30 00 00 00 
    69)        30.5  Rx         0004  8  00 00 00 00 00 00 00 00 
    70)        30.6  Rx         0005  8  00 00 00 00 00 00 02 9E 
    71)        30.8  Rx     00002901  8  FC 78 00 00 00 06 23 00 
    72)        31.0  Rx     00002902  8  FF FB 00 00 00 02 22 00 
    73)        32.8  Rx     00002901  8  FC 78 00 00 00 03 23 00 
    74)        32.9  Rx     00002902  8  FF FB 00 00 00 01 22 00 
    75)        34.1  Rx     00000801  8  00 00 00 7F FF 80 08 00 
    76)        34.2  Rx     00000802  8  00 00 00 7F FF 80 08 00 
    77)        34.3  Rx         0003  8  F6 30 00 F6 30 00 00 00 
    78)        34.5  Rx         0004  8  00 00 00 00 00 00 00 00 
    79)        34.6  Rx         0005  8  00 00 00 00 00 00 02 9D 
    80)        34.8  Rx     00002901  8  FC 78 00 00 00 06 23 00 
    81)        34.9  Rx     00002902  8  FF FB 00 00 00 06 22 00 
    82)        36.8  Rx     00002901  8  FC 78 00 00 00 05 23 00 
    83)        36.9  Rx     00002902  8  FF FB 00 00 00 00 22 00 
    84)        38.0  Rx     00000801  8  00 00 00 7F FF 80 08 00 
    85)        38.2  Rx     00000802  8  00 00 00 7F FF 80 08 00 
    86)        38.3  Rx         0003  8  F6 30 00 F6 30 00 00 00 
    87)        38.5  Rx         0004  8  00 00 00 00 00 00 00 00 
    88)        38.6  Rx         0005  8  00 00 00 00 00 00 02 A0 
    89)        38.8  Rx     00002901  8  FC 78 00 00 00 07 23 00 
    90)        38.9  Rx     00002902  8  FF FB 00 00 00 05 22 00 
    91)        40.8  Rx     00002901  8  FC 78 00 00 FF FF 23 00 
    92)        40.9  Rx     00002902  8  FF FB 00 00 00 02 22 00 
    93)        42.1  Rx     00000801  8  00 00 00 7F FF 80 08 00 
    94)        42.2  Rx     00000802  8  00 00 00 7F FF 80 08 00 
    95)        42.3  Rx         0003  8  F6 30 00 F6 30 00 00 00 
    96)        42.4  Rx         0004  8  00 00 00 00 00 00 00 00 
    97)        42.6  Rx         0005  8  00 00 00 00 00 00 02 A0 
    98)        42.8  Rx     00002901  8  FC 78 00 00 00 03 23 00 
    99)        43.0  Rx     00002902  8  FF FB 00 00 00 05 22 00 
   100)        44.8  Rx     00002901  8  FC 78 00 00 00 05 23 00 
   101)        45.0  Rx     00002902  8  FF FB 00 00 00 02 22 00 
   102)        46.1  Rx     00000801  8  00 00 00 7F FF 80 08 00 
   103)        46.2  Rx     00000802  8  00 00 00 7F FF 80 08 00 
   104)        46.3  Rx         0003  8  F6 30 00 F6 30 00 00 00 
   105)        46.5  Rx         0004  8  00 00 00 00 00 00 00 00 
   106)        46.6  Rx         0005  8  00 00 00 00 00 00 02 A0 
   107)        46.8  Rx     00002901  8  FC 78 00 00 00 0B 23 00 
   108)        47.0  Rx     00002902  8  FF FB 00 00 00 03 22 00 
   109)        48.8  Rx     00002901  8  FC 78 00 00 00 05 23 00 
   110)        48.9  Rx     00002902  8  FF FB 00 00 FF FF 22 00 
   111)        50.1  Rx     00000801  8  00 00 00 7F FF 80 08 00 
   112)        50.2  Rx     00000802  8  00 00 00 7F FF 80 08 00 
   113)        50.3  Rx         0003  8  F6 30 00 F6 30 00 00 00 
   114)        50.5  Rx         0004  8  00 00 00 00 00 00 00 00 
   115)        50.6  Rx         0005  8  00 00 00 00 00 00 02 A0 
   116)        50.8  Rx     00002901  8  FC 78 00 00 00 02 23 00 
   117)        50.9  Rx     00002902  8  FF FB 00 00 00 04 22 00 
   118)        52.8  Rx     00002901  8  FC 78 00 00 00 03 23 00 
   119)        52.9  Rx     00002902  8  FF FB 00 00 FF FE 22 00 
   120)        54.0  Rx     00000801  8  00 00 00 7F FF 80 08 00 
   121)        54.2  Rx     00000802  8  00 00 00 7F FF 80 08 00 
   122)        54.3  Rx         0003  8  F6 30 00 F6 30 00 00 00 
   123)        54.4  Rx         0004  8  00 00 00 00 00 00 00 00 
   124)        54.6  Rx         0005  8  00 00 00 00 00 00 02 A0 
   125)        54.8  Rx     00002901  8  FC 78 00 00 00 03 23 00 
   126)        54.9  Rx     00002902  8  FF FB 00 00 00 07 22 00 
   127)        56.8  Rx     00002901  8  FC 78 00 00 00 04 23 00 
   128)        56.9  Rx     00002902  8  FF FB 00 00 00 00 22 00 
   129)        58.1  Rx     00000801  8  00 00 00 7F FF 80 08 00 
   130)        58.2  Rx     00000802  8  00 00 00 7F FF 80 08 00 
   131)        58.3  Rx         0003  8  F6 30 00 F6 30 00 00 00 
   132)        58.4  Rx         0004  8  00 00 00 00 00 00 00 00 
   133)        58.6  Rx         0005  8  00 00 00 00 00 00 02 A0 
   134)        58.8  Rx     00002901  8  FC 78 00 00 00 04 23 00 
   135)        59.0  Rx     00002902  8  FF FB 00 00 00 03 22 00 
   136)        60.8  Rx     00002901  8  FC 78 00 00 00 05 23 00 
   137)        61.0  Rx     00002902  8  FF FB 00 00 00 00 22 00 
   138)        62.1  Rx     00000801  8  00 00 00 7F FF 80 08 00 
   139)        62.2  Rx     00000802  8  00 00 00 7F FF 80 08 00 
   140)        62.3  Rx         0003  8  F6 30 00 F6 30 00 00 00 
   141)        62.5  Rx         0004  8  00 00 00 00 00 00 00 00 
   142)        62.6  Rx         0005  8  00 00 00 00 00 00 02 A1 
   143)        62.8  Rx     00002901  8  FC 78 00 00 00 04 23 00 
   144)        63.0  Rx     00002902  8  FF FB 00 00 00 03 22 00 
   145)        64.8  Rx     00002901  8  FC 78 00 00 00 04 23 00 
   146)        64.9  Rx     00002902  8  FF FB 00 00 00 01 22 00 
   147)        66.1  Rx     00000801  8  00 00 00 7F FF 80 08 00 
   148)        66.2  Rx     00000802  8  00 00 00 7F FF 80 08 00 
   149)        66.3  Rx         0003  8  F6 30 00 F6 30 00 00 00 
   150)        66.5  Rx         0004  8  00 00 00 00 00 00 00 00 
   151)        66.6  Rx         0005  8  00 00 00 00 00 00 02 9F 
   152)        66.8  Rx     00002901  8  FC 78 00 00 00 09 23 00 
   153)        66.9  Rx     00002902  8  FF FB 00 00 00 05 22 00 
   154)        68.8  Rx     00002901  8  FC 78 00 00 00 01 23 00 
   155)        68.9  Rx     00002902  8  FF FB 00 00 FF FF 22 00 
   156)        70.0  Rx     00000801  8  00 00 00 7F FF 80 08 00 
   157)        70.2  Rx     00000802  8  00 00 00 7F FF 80 08 00 
   158)        70.3  Rx         0003  8  F6 30 00 F6 30 00 00 00 
   159)        70.5  Rx         0004  8  00 00 00 00 00 00 00 00 
   160)        70.6  Rx         0005  8  00 00 00 00 00 00 02 9F 
   161)        70.8  Rx     00002901  8  FC 78 00 00 00 06 23 00 
   162)        70.9  Rx     00002902  8  FF FB 00 00 00 03 22 00 
   163)        72.8  Rx     00002901  8  FC 78 00 00 00 04 23 00 
   164)        72.9  Rx     00002902  8  FF FB 00 00 FF FF 22 00 
   165)        74.1  Rx     00000801  8  00 00 00 7F FF 80 08 00 
   166)        74.2  Rx     00000802  8  00 00 00 7F FF 80 08 00 
   167)        74.3  Rx         0003  8  F6 30 00 F6 30 00 00 00 
   168)        74.4  Rx         0004  8  00 00 00 00 00 00 00 00 
   169)        74.6  Rx         0005  8  00 00 00 00 00 00 02 A0 
   170)        74.8  Rx     00002901  8  FC 78 00 00 00 06 23 00 
   171)        75.0  Rx     00002902  8  FF FB 00 00 00 04 22 00 
   172)        76.8  Rx     00002901  8  FC 78 00 00 00 05 23 00 
   173)        77.0  Rx     00002902  8  FF FB 00 00 FF FF 22 00 
   174)        78.1  Rx     00000801  8  00 00 00 7F FF 80 08 00 
   175)        78.2  Rx     00000802  8  00 00 00 7F FF 80 08 00 
   176)        78.3  Rx         0003  8  F6 30 00 F6 30 00 00 00 
   177)        78.5  Rx         0004  8  00 00 00 00 00 00 00 00 
   178)        78.6  Rx         0005  8  00 00 00 00 00 00 02 9F 
   179)        78.8  Rx     00002901  8  FC 78 00 00 00 03 23 00 
   180)        79.0  Rx     00002902  8  FF FB 00 00 00 02 22 00 
   181)        80.8  Rx     00002901  8  FC 78 00 00 00 02 23 00 
   182)        80.9  Rx     00002902  8  FF FB 00 00 00 00 22 00 
   183)        82.1  Rx     00000801  8  00 00 00 7F FF 80 08 00 
   184)        82.2  Rx     00000802  8  00 00 00 7F FF 80 08 00 
   185)        82.3  Rx         0003  8  F6 30 00 F6 30 00 00 00 
   186)        82.5  Rx         0004  8  00 00 00 00 00 00 00 00 
   187)        82.6  Rx         0005  8  00 00 00 00 00 00 02 9F 
   188)        82.8  Rx     00002901  8  FC 78 00 00 00 05 23 00 
   189)        82.9  Rx     00002902  8  FF FB 00 00 00 04 22 00 
   190)        84.8  Rx     00002901  8  FC 78 00 00 00 02 23 00 
   191)        84.9  Rx     00002902  8  FF FB 00 00 00 01 22 00 
   192)        86.0  Rx     00000801  8  00 00 00 7F FF 80 08 00 
   193)        86.2  Rx     00000802  8  00 00 00 7F FF 80 08 00 
   194)        86.3  Rx         0003  8  F6 30 00 F6 30 00 00 00 
   195)        86.4  Rx         0004  8  00 00 00 00 00 00 00 00 
   196)        86.6  Rx         0005  8  00 00 00 00 00 00 02 9F 
   197)        86.8  Rx     00002901  8  FC 78 00 00 00 03 23 00 
   198)        86.9  Rx     00002902  8  FF FB 00 00 00 04 22 00 
   199)        88.8  Rx     00002901  8  FC 78 00 00 00 03 23 00 
   200)        88.9  Rx     00002902  8  FF FB 00 00 FF FF 22 00 
   201)        90.1  Rx     00000801  8  00 00 00 7F FF 80 08 00 
   202)        90.2  Rx     00000802  8  00 00 00 7F FF 80 08 00 
   203)        90.3  Rx         0003  8  F6 30 00 F6 30 00 00 00 
   204)        90.4  Rx         0004  8  00 00 00 00 00 00 00 00 
   205)        90.6  Rx         0005  8  00 00 00 00 00 00 02 9E 
   206)        90.8  Rx     00002901  8  FC 78 00 00 00 04 23 00 
   207)        91.0  Rx     00002902  8  FF FB 00 00 00 04 22 00 
   208)        92.8  Rx     00002901  8  FC 78 00 00 00 05 23 00 
   209)        93.0  Rx     00002902  8  FF FB 00 00 FF FD 22 00 
   210)        94.1  Rx     00000801  8  00 00 00 7F FF 80 08 00 
   211)        94.2  Rx     00000802  8  00 00 00 7F FF 80 08 00 
   212)        94.3  Rx         0003  8  F6 30 00 F6 30 00 00 00 
   213)        94.5  Rx         0004  8  00 00 00 00 00 00 00 00 
   214)        94.6  Rx         0005  8  00 00 00 00 00 00 02 9D 
   215)        94.8  Rx     00002901  8  FC 78 00 00 00 06 23 00 
   216)        95.0  Rx     00002902  8  FF FB 00 00 00 04 22 00 
   217)        96.8  Rx     00002901  8  FC 78 00 00 00 07 23 00 
   218)        96.9  Rx     00002902  8  FF FB 00 00 00 01 22 00 
   219)        98.1  Rx     00000801  8  00 00 00 7F FF 80 08 00 
   220)        98.2  Rx     00000802  8  00 00 00 7F FF 80 08 00 
   221)        98.3  Rx         0003  8  F6 30 00 F6 30 00 00 00 
   222)        98.5  Rx         0004  8  00 00 00 00 00 00 00 00 
   223)        98.6  Rx         0005  8  00 00 00 00 00 00 02 A0 
   224)        98.8  Rx     00002901  8  FC 78 00 00 00 02 23 00 
   225)        98.9  Rx     00002902  8  FF FB 00 00 00 02 22 00 
   226)       100.8  Rx     00002901  8  FC 78 00 00 00 02 23 00 
   227)       100.9  Rx     00002902  8  FF FB 00 00 FF FF 22 00 
   228)       102.0  Rx     00000801  8  00 00 00 7F FF 80 08 00 
   229)       102.2  Rx     00000802  8  00 00 00 7F FF 80 08 00 
   230)       102.3  Rx         0003  8  F6 30 00 F6 30 00 00 00 
   231)       102.4  Rx         0004  8  00 00 00 00 00 00 00 00 
   232)       102.6  Rx         0005  8  00 00 00 00 00 00 02 A0 
   233)       102.8  Rx     00002901  8  FC 78 00 00 00 04 23 00 
   234)       102.9  Rx     00002902  8  FF FB 00 00 00 05 22 00 
   235)       104.8  Rx     00002901  8  FC 78 00 00 00 00 23 00 
   236)       104.9  Rx     00002902  8  FF FB 00 00 00 02 22 00 
   237)       106.1  Rx     00000801  8  00 00 00 7F FF 80 08 00 
   238)       106.2  Rx     00000802  8  00 00 00 7F FF 80 08 00 
   239)       106.3  Rx         0003  8  F6 30 00 F6 30 00 00 00 
   240)       106.4  Rx         0004  8  00 00 00 00 00 00 00 00 
   241)       106.6  Rx         0005  8  00 00 00 00 00 00 02 9F 
   242)       106.8  Rx     00002901  8  FC 78 00 00 00 05 23 00 
   243)       107.0  Rx     00002902  8  FF FB 00 00 00 07 22 00 
   244)       108.8  Rx     00002901  8  FC 78 00 00 00 02 23 00 
   245)       109.0  Rx     00002902  8  FF FB 00 00 FF FF 22 00 
   246)       110.1  Rx     00000801  8  00 00 00 7F FF 80 08 00 
   247)       110.2  Rx     00000802  8  00 00 00 7F FF 80 08 00 
   248)       110.3  Rx         0003  8  F6 30 00 F6 30 00 00 00 
   249)       110.5  Rx         0004  8  00 00 00 00 00 00 00 00 
   250)       110.6  Rx         0005  8  00 00 00 00 00 00 02 A0 
   251)       110.8  Rx     00002901  8  FC 78 00 00 00 02 23 00 
   252)       111.0  Rx     00002902  8  FF FB 00 00 00 02 22 00 
   253)       112.8  Rx     00002901  8  FC 78 00 00 00 00 23 00 
   254)       112.9  Rx     00002902  8  FF FB 00 00 FF FF 22 00 
   255)       114.1  Rx     00000801  8  00 00 00 7F FF 80 08 00 
   256)       114.2  Rx     00000802  8  00 00 00 7F FF 80 08 00 
   257)       114.3  Rx         0003  8  F6 30 00 F6 30 00 00 00 
   258)       114.5  Rx         0004  8  00 00 00 00 00 00 00 00 
   259)       114.6  Rx         0005  8  00 00 00 00 00 00 02 A0 
   260)       114.8  Rx     00002901  8  FC 78 00 00 00 07 23 00 
   261)       114.9  Rx     00002902  8  FF FB 00 00 00 06 22 00 
   262)       116.8  Rx     00002901  8  FC 78 00 00 00 04 23 00 
   263)       116.9  Rx     00002902  8  FF FB 00 00 FF FF 22 00 
   264)       118.0  Rx     00000801  8  00 00 00 7F FF 80 08 00 
   265)       118.2  Rx     00000802  8  00 00 00 7F FF 80 08 00 
   266)       118.3  Rx         0003  8  F6 30 00 F6 30 00 00 00 
   267)       118.5  Rx         0004  8  00 00 00 00 00 00 00 00 
   268)       118.6  Rx         0005  8  00 00 00 00 00 00 02 A1 
   269)       118.8  Rx     00002901  8  FC 78 00 00 00 05 23 00 
   270)       118.9  Rx     00002902  8  FF FB 00 00 00 05 22 00 
   271)       120.8  Rx     00002901  8  FC 78 00 00 00 06 23 00 
   272)       120.9  Rx     00002902  8  FF FB 00 00 00 00 22 00 
   273)       122.1  Rx     00000801  8  00 00 00 7F FF 80 08 00 
   274)       122.2  Rx     00000802  8  00 00 00 7F FF 80 08 00 
   275)       122.3  Rx         0003  8  F6 30 00 F6 30 00 00 00 
   276)       122.4  Rx         0004  8  00 00 00 00 00 00 00 00 
   277)       122.6  Rx         0005  8  00 00 00 00 00 00 02 9F 
   278)       122.8  Rx     00002901  8  FC 78 00 00 00 03 23 00 
   279)       123.0  Rx     00002902  8  FF FB 00 00 00 05 22 00 
   280)       124.8  Rx     00002901  8  FC 78 00 00 00 03 23 00 
   281)       125.0  Rx     00002902  8  FF FB 00 00 00 02 22 00 
   282)       126.1  Rx     00000801  8  00 00 00 7F FF 80 08 00 
   283)       126.2  Rx     00000802  8  00 00 00 7F FF 80 08 00 
   284)       126.3  Rx         0003  8  F6 30 00 F6 30 00 00 00 
   285)       126.5  Rx         0004  8  00 00 00 00 00 00 00 00 
   286)       126.6  Rx         0005  8  00 00 00 00 00 00 02 9F 
   287)       126.8  Rx     00002901  8  FC 78 00 00 00 03 23 00 
   288)       127.0  Rx     00002902  8  FF FB 00 00 00 05 22 00 
   289)       128.8  Rx     00002901  8  FC 78 00 00 00 03 23 00 
   290)       128.9  Rx     00002902  8  FF FB 00 00 FF FB 22 00 
   291)       130.1  Rx     00000801  8  00 00 00 7F FF 80 08 00 
   292)       130.2  Rx     00000802  8  00 00 00 7F FF 80 08 00 
   293)       130.3  Rx         0003  8  F6 30 00 F6 30 00 00 00 
   294)       130.5  Rx         0004  8  00 00 00 00 00 00 00 00 
   295)       130.6  Rx         0005  8  00 00 00 00 00 00 02 A0 
   296)       130.8  Rx     00002901  8  FC 78 00 00 00 06 23 00 
   297)       130.9  Rx     00002902  8  FF FB 00 00 00 06 22 00 
   298)       132.8  Rx     00002901  8  FC 78 00 00 00 03 23 00 
   299)       132.9  Rx     00002902  8  FF FB 00 00 00 00 22 00 
   300)       134.0  Rx     00000801  8  00 00 00 7F FF 80 08 00 
   301)       134.2  Rx     00000802  8  00 00 00 7F FF 80 08 00 
   302)       134.3  Rx         0003  8  F6 30 00 F6 30 00 00 00 
   303)       134.4  Rx         0004  8  00 00 00 00 00 00 00 00 
   304)       134.6  Rx         0005  8  00 00 00 00 00 00 02 A1 
   305)       134.8  Rx     00002901  8  FC 78 00 00 00 03 23 00 
   306)       134.9  Rx     00002902  8  FF FB 00 00 00 02 22 00 
   307)       136.8  Rx     00002901  8  FC 78 00 00 00 04 23 00 
   308)       136.9  Rx     00002902  8  FF FB 00 00 00 01 22 00 
   309)       138.1  Rx     00000801  8  00 00 00 7F FF 80 08 00 
   310)       138.2  Rx     00000802  8  00 00 00 7F FF 80 08 00 
   311)       138.3  Rx         0003  8  F6 30 00 F6 30 00 00 00 
   312)       138.4  Rx         0004  8  00 00 00 00 00 00 00 00 
   313)       138.6  Rx         0005  8  00 00 00 00 00 00 02 9E 
   314)       138.8  Rx     00002901  8  FC 78 00 00 00 04 23 00 
   315)       139.0  Rx     00002902  8  FF FB 00 00 00 08 22 00 
   316)       140.8  Rx     00002901  8  FC 78 00 00 00 02 23 00 
   317)       141.0  Rx     00002902  8  FF FB 00 00 00 00 22 00 
   318)       142.1  Rx     00000801  8  00 00 00 7F FF 80 08 00 
   319)       142.2  Rx     00000802  8  00 00 00 7F FF 80 08 00 
   320)       142.3  Rx         0003  8  F6 30 00 F6 30 00 00 00 
   321)       142.5  Rx         0004  8  00 00 00 00 00 00 00 00 
   322)       142.6  Rx         0005  8  00 00 00 00 00 00 02 9E 
   323)       142.8  Rx     00002901  8  FC 78 00 00 00 03 23 00 
   324)       143.0  Rx     00002902  8  FF FB 00 00 00 05 22 00 
   325)       144.8  Rx     00002901  8  FC 78 00 00 00 05 23 00 
   326)       144.9  Rx     00002902  8  FF FB 00 00 00 01 22 00 
   327)       146.1  Rx     00000801  8  00 00 00 7F FF 80 08 00 
   328)       146.2  Rx     00000802  8  00 00 00 7F FF 80 08 00 
   329)       146.3  Rx         0003  8  F6 30 00 F6 30 00 00 00 
   330)       146.5  Rx         0004  8  00 00 00 00 00 00 00 00 
   331)       146.6  Rx         0005  8  00 00 00 00 00 00 02 9E 
   332)       146.8  Rx     00002901  8  FC 78 00 00 00 08 23 00 
   333)       146.9  Rx     00002902  8  FF FB 00 00 00 09 22 00 
   334)       148.8  Rx     00002901  8  FC 78 00 00 00 05 23 00 
   335)       148.9  Rx     00002902  8  FF FB 00 00 00 01 22 00 
   336)       150.0  Rx     00000801  8  00 00 00 7F FF 80 08 00 
   337)       150.2  Rx     00000802  8  00 00 00 7F FF 80 08 00 
   338)       150.3  Rx         0003  8  F6 30 00 F6 30 00 00 00 
   339)       150.4  Rx         0004  8  00 00 00 00 00 00 00 00 
   340)       150.6  Rx         0005  8  00 00 00 00 00 00 02 A0 
   341)       150.8  Rx     00002901  8  FC 78 00 00 00 05 23 00 
   342)       150.9  Rx     00002902  8  FF FB 00 00 00 04 22 00 
   343)       152.8  Rx     00002901  8  FC 78 00 00 00 04 23 00 
   344)       152.9  Rx     00002902  8  FF FB 00 00 00 01 22 00 
   345)       154.1  Rx     00000801  8  00 00 00 7F FF 80 08 00 
   346)       154.2  Rx     00000802  8  00 00 00 7F FF 80 08 00 
   347)       154.3  Rx         0003  8  F6 30 00 F6 30 00 00 00 
   348)       154.4  Rx         0004  8  00 00 00 00 00 00 00 00 
   349)       154.6  Rx         0005  8  00 00 00 00 00 00 02 9F 
   350)       154.8  Rx     00002901  8  FC 78 00 00 00 06 23 00 
   351)       155.0  Rx     00002902  8  FF FB 00 00 00 05 22 00 
   352)       156.8  Rx     00002901  8  FC 78 00 00 FF FF 23 00 
   353)       157.0  Rx     00002902  8  FF FB 00 00 00 00 22 00 
   354)       158.1  Rx     00000801  8  00 00 00 7F FF 80 08 00 
   355)       158.2  Rx     00000802  8  00 00 00 7F FF 80 08 00 
   356)       158.3  Rx         0003  8  F6 30 00 F6 30 00 00 00 
   357)       158.5  Rx         0004  8  00 00 00 00 00 00 00 00 
   358)       158.6  Rx         0005  8  00 00 00 00 00 00 02 A0 
   359)       158.8  Rx     00002901  8  FC 78 00 00 00 03 23 00 
   360)       159.0  Rx     00002902  8  FF FB 00 00 00 05 22 00 
   361)       160.8  Rx     00002901  8  FC 78 00 00 00 03 23 00 
   362)       160.9  Rx     00002902  8  FF FB 00 00 00 00 22 00 
   363)       162.1  Rx     00000801  8  00 00 00 7F FF 80 08 00 
   364)       162.2  Rx     00000802  8  00 00 00 7F FF 80 08 00 
   365)       162.3  Rx         0003  8  F6 30 00 F6 30 00 00 00 
