;$FILEVERSION=1.1
;$STARTTIME=45765.9428951968
;
;   Start time: 4/18/2025 22:37:46.145.0
;   Generated by PCAN-View v5.3.2.952
;
;   Message Number
;   |         Time Offset (ms)
;   |         |        Type
;   |         |        |        ID (hex)
;   |         |        |        |     Data Length
;   |         |        |        |     |   Data Bytes (hex) ...
;   |         |        |        |     |   |
;---+--   ----+----  --+--  ----+---  +  -+ -- -- -- -- -- -- --
     1)        16.3  Rx     00000801  8  00 00 00 7F FF 80 08 00 
     2)        16.5  Rx     00000802  8  00 00 00 7F FF 80 08 00 
     3)        16.6  Rx         0003  8  F6 4F FF F6 4F FF 00 00 
     4)        16.7  Rx         0004  8  00 00 00 00 00 00 00 00 
     5)        16.8  Rx         0005  8  00 00 00 00 00 00 02 9F 
     6)        17.2  Rx     00002901  8  FC 82 00 00 FF F3 27 00 
     7)        17.4  Rx     00002902  8  FF FA 00 00 00 01 26 00 
     8)        19.2  Rx     00002901  8  FC 82 00 00 FF F7 27 00 
     9)        19.3  Rx     00002902  8  FF FA 00 00 00 01 26 00 
    10)        20.3  Rx     00000801  8  00 00 00 7F FF 80 08 00 
    11)        20.5  Rx     00000802  8  00 00 00 7F FF 80 08 00 
    12)        20.6  Rx         0003  8  F6 4F FF F6 4F FF 00 00 
    13)        20.7  Rx         0004  8  00 00 00 00 00 00 00 00 
    14)        20.8  Rx         0005  8  00 00 00 00 00 00 02 A0 
    15)        21.2  Rx     00002901  8  FC 82 00 00 FF FA 27 00 
    16)        21.3  Rx     00002902  8  FF FA 00 00 00 02 26 00 
    17)        23.2  Rx     00002901  8  FC 82 00 00 FF F7 27 00 
    18)        23.3  Rx     00002902  8  FF FA 00 00 00 01 26 00 
    19)        24.3  Rx     00000801  8  00 00 00 7F FF 80 08 00 
    20)        24.5  Rx     00000802  8  00 00 00 7F FF 80 08 00 
    21)        24.6  Rx         0003  8  F6 4F FF F6 4F FF 00 00 
    22)        24.7  Rx         0004  8  00 00 00 00 00 00 00 00 
    23)        24.9  Rx         0005  8  00 00 00 00 00 00 02 A2 
    24)        25.2  Rx     00002901  8  FC 82 00 00 FF F7 27 00 
    25)        25.3  Rx     00002902  8  FF FA 00 00 00 02 26 00 
    26)        27.2  Rx     00002901  8  FC 82 00 00 FF F6 27 00 
    27)        27.3  Rx     00002902  8  FF FA 00 00 00 00 26 00 
    28)        28.3  Rx     00000801  8  00 00 00 7F FF 80 08 00 
    29)        28.5  Rx     00000802  8  00 00 00 7F FF 80 08 00 
    30)        28.6  Rx         0003  8  F6 4F FF F6 4F FF 00 00 
    31)        28.7  Rx         0004  8  00 00 00 00 00 00 00 00 
    32)        28.8  Rx         0005  8  00 00 00 00 00 00 02 A0 
    33)        29.2  Rx     00002901  8  FC 82 00 00 FF F8 27 00 
    34)        29.3  Rx     00002902  8  FF FA 00 00 00 01 26 00 
    35)        31.2  Rx     00002901  8  FC 82 00 00 FF F7 27 00 
    36)        31.3  Rx     00002902  8  FF FA 00 00 00 01 26 00 
    37)        32.3  Rx     00000801  8  00 00 00 7F FF 80 08 00 
    38)        32.5  Rx     00000802  8  00 00 00 7F FF 80 08 00 
    39)        32.6  Rx         0003  8  F6 4F FF F6 4F FF 00 00 
    40)        32.7  Rx         0004  8  00 00 00 00 00 00 00 00 
    41)        32.8  Rx         0005  8  00 00 00 00 00 00 02 A2 
    42)        33.2  Rx     00002901  8  FC 82 00 00 FF F3 27 00 
    43)        33.3  Rx     00002902  8  FF FA 00 00 00 03 26 00 
    44)        35.2  Rx     00002901  8  FC 82 00 00 FF F7 27 00 
    45)        35.3  Rx     00002902  8  FF FA 00 00 00 00 26 00 
    46)        36.3  Rx     00000801  8  00 00 00 7F FF 80 08 00 
    47)        36.5  Rx     00000802  8  00 00 00 7F FF 80 08 00 
    48)        36.6  Rx         0003  8  F6 4F FF F6 4F FF 00 00 
    49)        36.7  Rx         0004  8  00 00 00 00 00 00 00 00 
    50)        36.8  Rx         0005  8  00 00 00 00 00 00 02 A0 
    51)        37.2  Rx     00002901  8  FC 82 00 00 FF F9 27 00 
    52)        37.3  Rx     00002902  8  FF FA 00 00 00 02 26 00 
    53)        39.2  Rx     00002901  8  FC 82 00 00 FF F9 27 00 
    54)        39.3  Rx     00002902  8  FF FA 00 00 00 01 26 00 
    55)        40.3  Rx     00000801  8  00 00 00 7F FF 80 08 00 
    56)        40.5  Rx     00000802  8  00 00 00 7F FF 80 08 00 
    57)        40.6  Rx         0003  8  F6 4F FF F6 4F FF 00 00 
    58)        40.7  Rx         0004  8  00 00 00 00 00 00 00 00 
    59)        40.9  Rx         0005  8  00 00 00 00 00 00 02 A2 
    60)        41.2  Rx     00002901  8  FC 82 00 00 FF F4 27 00 
    61)        41.3  Rx     00002902  8  FF FA 00 00 00 00 26 00 
    62)        43.2  Rx     00002901  8  FC 82 00 00 FF F8 27 00 
    63)        43.3  Rx     00002902  8  FF FA 00 00 00 00 26 00 
    64)        44.3  Rx     00000801  8  00 00 00 7F FF 80 08 00 
    65)        44.5  Rx     00000802  8  00 00 00 7F FF 80 08 00 
    66)        44.6  Rx         0003  8  F6 4F FF F6 4F FF 00 00 
    67)        44.7  Rx         0004  8  00 00 00 00 00 00 00 00 
    68)        44.9  Rx         0005  8  00 00 00 00 00 00 02 A0 
    69)        45.2  Rx     00002901  8  FC 82 00 00 FF F7 27 00 
    70)        45.3  Rx     00002902  8  FF FA 00 00 00 01 26 00 
    71)        47.2  Rx     00002901  8  FC 82 00 00 FF FA 27 00 
    72)        47.3  Rx     00002902  8  FF FA 00 00 00 00 26 00 
    73)        48.3  Rx     00000801  8  00 00 00 7F FF 80 08 00 
    74)        48.5  Rx     00000802  8  00 00 00 7F FF 80 08 00 
    75)        48.6  Rx         0003  8  F6 4F FF F6 4F FF 00 00 
    76)        48.7  Rx         0004  8  00 00 00 00 00 00 00 00 
    77)        48.8  Rx         0005  8  00 00 00 00 00 00 02 A2 
    78)        49.2  Rx     00002901  8  FC 82 00 00 FF F7 27 00 
    79)        49.3  Rx     00002902  8  FF FA 00 00 00 02 26 00 
    80)        51.2  Rx     00002901  8  FC 82 00 00 FF F8 27 00 
    81)        51.3  Rx     00002902  8  FF FA 00 00 00 00 26 00 
    82)        52.3  Rx     00000801  8  00 00 00 7F FF 80 08 00 
    83)        52.5  Rx     00000802  8  00 00 00 7F FF 80 08 00 
    84)        52.6  Rx         0003  8  F6 4F FF F6 4F FF 00 00 
    85)        52.7  Rx         0004  8  00 00 00 00 00 00 00 00 
    86)        52.8  Rx         0005  8  00 00 00 00 00 00 02 A0 
    87)        53.2  Rx     00002901  8  FC 82 00 00 FF F4 27 00 
    88)        53.3  Rx     00002902  8  FF FA 00 00 00 00 26 00 
    89)        55.2  Rx     00002901  8  FC 82 00 00 FF F9 27 00 
    90)        55.3  Rx     00002902  8  FF FA 00 00 00 00 26 00 
    91)        56.3  Rx     00000801  8  00 00 00 7F FF 80 08 00 
    92)        56.5  Rx     00000802  8  00 00 00 7F FF 80 08 00 
    93)        56.6  Rx         0003  8  F6 4F FF F6 4F FF 00 00 
    94)        56.7  Rx         0004  8  00 00 00 00 00 00 00 00 
    95)        56.9  Rx         0005  8  00 00 00 00 00 00 02 A1 
    96)        57.2  Rx     00002901  8  FC 82 00 00 FF F4 27 00 
    97)        57.3  Rx     00002902  8  FF FA 00 00 00 03 26 00 
    98)        59.2  Rx     00002901  8  FC 82 00 00 FF F7 27 00 
    99)        59.3  Rx     00002902  8  FF FA 00 00 00 00 26 00 
   100)        60.3  Rx     00000801  8  00 00 00 7F FF 80 08 00 
   101)        60.5  Rx     00000802  8  00 00 00 7F FF 80 08 00 
   102)        60.6  Rx         0003  8  F6 4F FF F6 4F FF 00 00 
   103)        60.7  Rx         0004  8  00 00 00 00 00 00 00 00 
   104)        60.8  Rx         0005  8  00 00 00 00 00 00 02 A0 
   105)        61.2  Rx     00002901  8  FC 82 00 00 FF F7 27 00 
   106)        61.3  Rx     00002902  8  FF FA 00 00 00 02 26 00 
   107)        63.2  Rx     00002901  8  FC 82 00 00 FF FA 27 00 
   108)        63.3  Rx     00002902  8  FF FA 00 00 00 01 26 00 
   109)        64.3  Rx     00000801  8  00 00 00 7F FF 80 08 00 
   110)        64.5  Rx     00000802  8  00 00 00 7F FF 80 08 00 
   111)        64.6  Rx         0003  8  F6 4F FF F6 4F FF 00 00 
   112)        64.7  Rx         0004  8  00 00 00 00 00 00 00 00 
   113)        64.8  Rx         0005  8  00 00 00 00 00 00 02 A1 
   114)        65.2  Rx     00002901  8  FC 82 00 00 FF F7 27 00 
   115)        65.3  Rx     00002902  8  FF FA 00 00 00 02 26 00 
   116)        67.2  Rx     00002901  8  FC 82 00 00 FF F8 27 00 
   117)        67.3  Rx     00002902  8  FF FA 00 00 00 00 26 00 
   118)        68.3  Rx     00000801  8  00 00 00 7F FF 80 08 00 
   119)        68.5  Rx     00000802  8  00 00 00 7F FF 80 08 00 
   120)        68.6  Rx         0003  8  F6 4F FF F6 4F FF 00 00 
   121)        68.7  Rx         0004  8  00 00 00 00 00 00 00 00 
   122)        68.8  Rx         0005  8  00 00 00 00 00 00 02 A0 
   123)        69.2  Rx     00002901  8  FC 82 00 00 FF F6 27 00 
   124)        69.3  Rx     00002902  8  FF FA 00 00 00 01 26 00 
   125)        71.2  Rx     00002901  8  FC 82 00 00 FF F5 27 00 
   126)        71.3  Rx     00002902  8  FF FA 00 00 00 01 26 00 
   127)        72.3  Rx     00000801  8  00 00 00 7F FF 80 08 00 
   128)        72.5  Rx     00000802  8  00 00 00 7F FF 80 08 00 
   129)        72.6  Rx         0003  8  F6 4F FF F6 4F FF 00 00 
   130)        72.7  Rx         0004  8  00 00 00 00 00 00 00 00 
   131)        72.9  Rx         0005  8  00 00 00 00 00 00 02 A2 
   132)        73.2  Rx     00002901  8  FC 82 00 00 FF F4 27 00 
   133)        73.3  Rx     00002902  8  FF FA 00 00 00 01 26 00 
   134)        75.2  Rx     00002901  8  FC 82 00 00 FF F8 27 00 
   135)        75.3  Rx     00002902  8  FF FA 00 00 00 00 26 00 
   136)        76.3  Rx     00000801  8  00 00 00 7F FF 80 08 00 
   137)        76.5  Rx     00000802  8  00 00 00 7F FF 80 08 00 
   138)        76.6  Rx         0003  8  F6 4F FF F6 4F FF 00 00 
   139)        76.7  Rx         0004  8  00 00 00 00 00 00 00 00 
   140)        76.8  Rx         0005  8  00 00 00 00 00 00 02 A0 
   141)        77.2  Rx     00002901  8  FC 82 00 00 FF F7 27 00 
   142)        77.3  Rx     00002902  8  FF FA 00 00 00 01 26 00 
   143)        79.2  Rx     00002901  8  FC 82 00 00 FF F7 27 00 
   144)        79.3  Rx     00002902  8  FF FA 00 00 00 01 26 00 
   145)        80.3  Rx     00000801  8  00 00 00 7F FF 80 08 00 
   146)        80.5  Rx     00000802  8  00 00 00 7F FF 80 08 00 
   147)        80.6  Rx         0003  8  F6 4F FF F6 4F FF 00 00 
   148)        80.7  Rx         0004  8  00 00 00 00 00 00 00 00 
   149)        80.8  Rx         0005  8  00 00 00 00 00 00 02 A2 
   150)        81.2  Rx     00002901  8  FC 82 00 00 FF FD 27 00 
   151)        81.4  Rx     00002902  8  FF FA 00 00 00 03 26 00 
   152)        83.2  Rx     00002901  8  FC 82 00 00 FF F6 27 00 
   153)        83.3  Rx     00002902  8  FF FA 00 00 00 01 26 00 
   154)        84.3  Rx     00000801  8  00 00 00 7F FF 80 08 00 
   155)        84.5  Rx     00000802  8  00 00 00 7F FF 80 08 00 
   156)        84.6  Rx         0003  8  F6 4F FF F6 4F FF 00 00 
   157)        84.7  Rx         0004  8  00 00 00 00 00 00 00 00 
   158)        84.8  Rx         0005  8  00 00 00 00 00 00 02 9F 
   159)        85.2  Rx     00002901  8  FC 82 00 00 FF FA 27 00 
   160)        85.3  Rx     00002902  8  FF FA 00 00 00 02 26 00 
   161)        87.2  Rx     00002901  8  FC 82 00 00 FF F9 27 00 
   162)        87.3  Rx     00002902  8  FF FA 00 00 00 00 26 00 
   163)        88.3  Rx     00000801  8  00 00 00 7F FF 80 08 00 
   164)        88.5  Rx     00000802  8  00 00 00 7F FF 80 08 00 
   165)        88.6  Rx         0003  8  F6 4F FF F6 4F FF 00 00 
   166)        88.7  Rx         0004  8  00 00 00 00 00 00 00 00 
   167)        88.9  Rx         0005  8  00 00 00 00 00 00 02 A0 
   168)        89.2  Rx     00002901  8  FC 82 00 00 FF F5 27 00 
   169)        89.3  Rx     00002902  8  FF FA 00 00 00 00 26 00 
   170)        91.2  Rx     00002901  8  FC 82 00 00 FF F8 27 00 
   171)        91.3  Rx     00002902  8  FF FA 00 00 00 00 26 00 
   172)        92.3  Rx     00000801  8  00 00 00 7F FF 80 08 00 
   173)        92.5  Rx     00000802  8  00 00 00 7F FF 80 08 00 
   174)        92.6  Rx         0003  8  F6 4F FF F6 4F FF 00 00 
   175)        92.7  Rx         0004  8  00 00 00 00 00 00 00 00 
   176)        92.9  Rx         0005  8  00 00 00 00 00 00 02 A2 
   177)        93.2  Rx     00002901  8  FC 82 00 00 FF F6 27 00 
   178)        93.3  Rx     00002902  8  FF FA 00 00 00 00 26 00 
   179)        95.2  Rx     00002901  8  FC 82 00 00 FF F7 27 00 
   180)        95.3  Rx     00002902  8  FF FA 00 00 00 00 26 00 
   181)        96.3  Rx     00000801  8  00 00 00 7F FF 80 08 00 
   182)        96.5  Rx     00000802  8  00 00 00 7F FF 80 08 00 
   183)        96.6  Rx         0003  8  F6 4F FF F6 4F FF 00 00 
   184)        96.7  Rx         0004  8  00 00 00 00 00 00 00 00 
   185)        96.8  Rx         0005  8  00 00 00 00 00 00 02 A0 
   186)        97.2  Rx     00002901  8  FC 82 00 00 FF F9 27 00 
   187)        97.3  Rx     00002902  8  FF FA 00 00 00 02 26 00 
   188)        99.2  Rx     00002901  8  FC 82 00 00 FF F5 27 00 
   189)        99.3  Rx     00002902  8  FF FA 00 00 00 00 26 00 
   190)       100.3  Rx     00000801  8  00 00 00 7F FF 80 08 00 
   191)       100.5  Rx     00000802  8  00 00 00 7F FF 80 08 00 
   192)       100.6  Rx         0003  8  F6 4F FF F6 4F FF 00 00 
   193)       100.7  Rx         0004  8  00 00 00 00 00 00 00 00 
   194)       100.8  Rx         0005  8  00 00 00 00 00 00 02 A2 
   195)       101.2  Rx     00002901  8  FC 82 00 00 FF F6 27 00 
   196)       101.3  Rx     00002902  8  FF FA 00 00 00 00 26 00 
   197)       103.2  Rx     00002901  8  FC 82 00 00 FF F7 27 00 
   198)       103.3  Rx     00002902  8  FF FA 00 00 00 00 26 00 
   199)       104.3  Rx     00000801  8  00 00 00 7F FF 80 08 00 
   200)       104.5  Rx     00000802  8  00 00 00 7F FF 80 08 00 
   201)       104.6  Rx         0003  8  F6 4F FF F6 4F FF 00 00 
   202)       104.7  Rx         0004  8  00 00 00 00 00 00 00 00 
   203)       104.9  Rx         0005  8  00 00 00 00 00 00 02 A1 
   204)       105.2  Rx     00002901  8  FC 82 00 00 FF F7 27 00 
   205)       105.3  Rx     00002902  8  FF FA 00 00 00 02 26 00 
   206)       107.2  Rx     00002901  8  FC 82 00 00 FF F5 27 00 
   207)       107.3  Rx     00002902  8  FF FA 00 00 00 00 26 00 
   208)       108.3  Rx     00000801  8  00 00 00 7F FF 80 08 00 
   209)       108.5  Rx     00000802  8  00 00 00 7F FF 80 08 00 
   210)       108.6  Rx         0003  8  F6 4F FF F6 4F FF 00 00 
   211)       108.7  Rx         0004  8  00 00 00 00 00 00 00 00 
   212)       108.8  Rx         0005  8  00 00 00 00 00 00 02 9F 
   213)       109.2  Rx     00002901  8  FC 82 00 00 FF F7 27 00 
   214)       109.3  Rx     00002902  8  FF FA 00 00 00 02 26 00 
   215)       111.2  Rx     00002901  8  FC 82 00 00 FF F7 27 00 
   216)       111.3  Rx     00002902  8  FF FA 00 00 00 01 26 00 
   217)       112.3  Rx     00000801  8  00 00 00 7F FF 80 08 00 
   218)       112.5  Rx     00000802  8  00 00 00 7F FF 80 08 00 
   219)       112.6  Rx         0003  8  F6 4F FF F6 4F FF 00 00 
   220)       112.7  Rx         0004  8  00 00 00 00 00 00 00 00 
   221)       112.8  Rx         0005  8  00 00 00 00 00 00 02 A1 
   222)       113.2  Rx     00002901  8  FC 82 00 00 FF FA 27 00 
   223)       113.3  Rx     00002902  8  FF FA 00 00 00 01 26 00 
   224)       115.2  Rx     00002901  8  FC 82 00 00 FF F2 27 00 
   225)       115.3  Rx     00002902  8  FF FA 00 00 00 00 26 00 
   226)       116.3  Rx     00000801  8  00 00 00 7F FF 80 08 00 
   227)       116.5  Rx     00000802  8  00 00 00 7F FF 80 08 00 
   228)       116.6  Rx         0003  8  F6 4F FF F6 4F FF 00 00 
   229)       116.7  Rx         0004  8  00 00 00 00 00 00 00 00 
   230)       116.8  Rx         0005  8  00 00 00 00 00 00 02 A0 
   231)       117.2  Rx     00002901  8  FC 82 00 00 FF F8 27 00 
   232)       117.3  Rx     00002902  8  FF FA 00 00 00 01 26 00 
   233)       119.2  Rx     00002901  8  FC 82 00 00 FF F7 27 00 
   234)       119.3  Rx     00002902  8  FF FA 00 00 00 02 26 00 
   235)       120.3  Rx     00000801  8  00 00 00 7F FF 80 08 00 
   236)       120.5  Rx     00000802  8  00 00 00 7F FF 80 08 00 
   237)       120.6  Rx         0003  8  F6 4F FF F6 4F FF 00 00 
   238)       120.7  Rx         0004  8  00 00 00 00 00 00 00 00 
   239)       120.9  Rx         0005  8  00 00 00 00 00 00 02 A1 
   240)       121.2  Rx     00002901  8  FC 82 00 00 FF F9 27 00 
   241)       121.3  Rx     00002902  8  FF FA 00 00 00 02 26 00 
   242)       123.2  Rx     00002901  8  FC 82 00 00 FF FA 27 00 
   243)       123.3  Rx     00002902  8  FF FA 00 00 00 00 26 00 
   244)       124.3  Rx     00000801  8  00 00 00 7F FF 80 08 00 
   245)       124.5  Rx     00000802  8  00 00 00 7F FF 80 08 00 
   246)       124.6  Rx         0003  8  F6 4F FF F6 4F FF 00 00 
   247)       124.7  Rx         0004  8  00 00 00 00 00 00 00 00 
   248)       124.8  Rx         0005  8  00 00 00 00 00 00 02 9F 
   249)       125.2  Rx     00002901  8  FC 82 00 00 FF F6 27 00 
   250)       125.3  Rx     00002902  8  FF FA 00 00 00 02 26 00 
   251)       127.2  Rx     00002901  8  FC 82 00 00 FF F7 27 00 
   252)       127.3  Rx     00002902  8  FF FA 00 00 00 00 26 00 
   253)       128.3  Rx     00000801  8  00 00 00 7F FF 80 08 00 
   254)       128.5  Rx     00000802  8  00 00 00 7F FF 80 08 00 
   255)       128.6  Rx         0003  8  F6 4F FF F6 4F FF 00 00 
   256)       128.7  Rx         0004  8  00 00 00 00 00 00 00 00 
   257)       128.8  Rx         0005  8  00 00 00 00 00 00 02 A1 
   258)       129.2  Rx     00002901  8  FC 82 00 00 FF F6 27 00 
   259)       129.3  Rx     00002902  8  FF FA 00 00 00 02 26 00 
   260)       131.2  Rx     00002901  8  FC 82 00 00 FF FB 27 00 
   261)       131.3  Rx     00002902  8  FF FA 00 00 00 00 26 00 
   262)       132.3  Rx     00000801  8  00 00 00 7F FF 80 08 00 
   263)       132.5  Rx     00000802  8  00 00 00 7F FF 80 08 00 
   264)       132.6  Rx         0003  8  F6 4F FF F6 4F FF 00 00 
   265)       132.7  Rx         0004  8  00 00 00 00 00 00 00 00 
   266)       132.8  Rx         0005  8  00 00 00 00 00 00 02 A0 
   267)       133.2  Rx     00002901  8  FC 82 00 00 FF F8 27 00 
   268)       133.3  Rx     00002902  8  FF FA 00 00 00 02 26 00 
   269)       135.2  Rx     00002901  8  FC 82 00 00 FF F7 27 00 
   270)       135.3  Rx     00002902  8  FF FA 00 00 00 00 26 00 
   271)       136.3  Rx     00000801  8  00 00 00 7F FF 80 08 00 
   272)       136.5  Rx     00000802  8  00 00 00 7F FF 80 08 00 
   273)       136.6  Rx         0003  8  F6 4F FF F6 4F FF 00 00 
   274)       136.7  Rx         0004  8  00 00 00 00 00 00 00 00 
   275)       136.9  Rx         0005  8  00 00 00 00 00 00 02 A1 
   276)       137.2  Rx     00002901  8  FC 82 00 00 FF FA 27 00 
   277)       137.3  Rx     00002902  8  FF FA 00 00 00 02 26 00 
   278)       139.2  Rx     00002901  8  FC 82 00 00 FF F6 27 00 
   279)       139.3  Rx     00002902  8  FF FA 00 00 00 01 26 00 
   280)       140.3  Rx     00000801  8  00 00 00 7F FF 80 08 00 
   281)       140.5  Rx     00000802  8  00 00 00 7F FF 80 08 00 
   282)       140.6  Rx         0003  8  F6 4F FF F6 4F FF 00 00 
   283)       140.7  Rx         0004  8  00 00 00 00 00 00 00 00 
   284)       140.8  Rx         0005  8  00 00 00 00 00 00 02 A0 
   285)       141.2  Rx     00002901  8  FC 82 00 00 FF F5 27 00 
   286)       141.3  Rx     00002902  8  FF FA 00 00 00 01 26 00 
   287)       143.2  Rx     00002901  8  FC 82 00 00 FF F7 27 00 
   288)       143.3  Rx     00002902  8  FF FA 00 00 00 00 26 00 
   289)       144.3  Rx     00000801  8  00 00 00 7F FF 80 08 00 
   290)       144.5  Rx     00000802  8  00 00 00 7F FF 80 08 00 
   291)       144.6  Rx         0003  8  F6 4F FF F6 4F FF 00 00 
   292)       144.7  Rx         0004  8  00 00 00 00 00 00 00 00 
   293)       144.8  Rx         0005  8  00 00 00 00 00 00 02 A2 
   294)       145.2  Rx     00002901  8  FC 82 00 00 FF F7 27 00 
   295)       145.3  Rx     00002902  8  FF FA 00 00 00 00 26 00 
   296)       147.2  Rx     00002901  8  FC 82 00 00 FF F8 27 00 
   297)       147.3  Rx     00002902  8  FF FA 00 00 00 00 26 00 
   298)       148.3  Rx     00000801  8  00 00 00 7F FF 80 08 00 
   299)       148.5  Rx     00000802  8  00 00 00 7F FF 80 08 00 
   300)       148.6  Rx         0003  8  F6 4F FF F6 4F FF 00 00 
   301)       148.7  Rx         0004  8  00 00 00 00 00 00 00 00 
   302)       148.8  Rx         0005  8  00 00 00 00 00 00 02 A0 
   303)       149.2  Rx     00002901  8  FC 82 00 00 FF F8 27 00 
   304)       149.3  Rx     00002902  8  FF FA 00 00 00 02 26 00 
   305)       151.2  Rx     00002901  8  FC 82 00 00 FF FA 27 00 
   306)       151.3  Rx     00002902  8  FF FA 00 00 00 00 26 00 
   307)       152.3  Rx     00000801  8  00 00 00 7F FF 80 08 00 
   308)       152.5  Rx     00000802  8  00 00 00 7F FF 80 08 00 
   309)       152.6  Rx         0003  8  F6 4F FF F6 4F FF 00 00 
   310)       152.7  Rx         0004  8  00 00 00 00 00 00 00 00 
   311)       152.9  Rx         0005  8  00 00 00 00 00 00 02 A2 
   312)       153.2  Rx     00002901  8  FC 82 00 00 FF F8 27 00 
   313)       153.3  Rx     00002902  8  FF FA 00 00 00 01 26 00 
   314)       155.2  Rx     00002901  8  FC 82 00 00 FF F4 27 00 
   315)       155.3  Rx     00002902  8  FF FA 00 00 00 00 26 00 
   316)       156.3  Rx     00000801  8  00 00 00 7F FF 80 08 00 
   317)       156.5  Rx     00000802  8  00 00 00 7F FF 80 08 00 
   318)       156.6  Rx         0003  8  F6 4F FF F6 4F FF 00 00 
   319)       156.7  Rx         0004  8  00 00 00 00 00 00 00 00 
   320)       156.8  Rx         0005  8  00 00 00 00 00 00 02 9F 
   321)       157.2  Rx     00002901  8  FC 82 00 00 FF F6 27 00 
   322)       157.3  Rx     00002902  8  FF FA 00 00 00 01 26 00 
   323)       159.2  Rx     00002901  8  FC 82 00 00 FF F7 27 00 
   324)       159.3  Rx     00002902  8  FF FA 00 00 00 00 26 00 
   325)       160.3  Rx     00000801  8  00 00 00 7F FF 80 08 00 
   326)       160.5  Rx     00000802  8  00 00 00 7F FF 80 08 00 
   327)       160.6  Rx         0003  8  F6 4F FF F6 4F FF 00 00 
   328)       160.7  Rx         0004  8  00 00 00 00 00 00 00 00 
   329)       160.8  Rx         0005  8  00 00 00 00 00 00 02 A1 
   330)       161.2  Rx     00002901  8  FC 82 00 00 FF F7 27 00 
   331)       161.3  Rx     00002902  8  FF FA 00 00 00 01 26 00 
   332)       163.2  Rx     00002901  8  FC 82 00 00 FF F6 27 00 
   333)       163.3  Rx     00002902  8  FF FA 00 00 00 00 26 00 
   334)       164.3  Rx     00000801  8  00 00 00 7F FF 80 08 00 
   335)       164.5  Rx     00000802  8  00 00 00 7F FF 80 08 00 
   336)       164.6  Rx         0003  8  F6 4F FF F6 4F FF 00 00 
   337)       164.7  Rx         0004  8  00 00 00 00 00 00 00 00 
   338)       164.8  Rx         0005  8  00 00 00 00 00 00 02 A0 
   339)       165.2  Rx     00002901  8  FC 82 00 00 FF F7 27 00 
   340)       165.3  Rx     00002902  8  FF FA 00 00 00 02 26 00 
   341)       167.2  Rx     00002901  8  FC 82 00 00 FF F7 27 00 
   342)       167.3  Rx     00002902  8  FF FA 00 00 00 00 26 00 
   343)       168.3  Rx     00000801  8  00 00 00 7F FF 80 08 00 
   344)       168.5  Rx     00000802  8  00 00 00 7F FF 80 08 00 
   345)       168.6  Rx         0003  8  F6 4F FF F6 4F FF 00 00 
   346)       168.7  Rx         0004  8  00 00 00 00 00 00 00 00 
   347)       168.9  Rx         0005  8  00 00 00 00 00 00 02 A2 
   348)       169.2  Rx     00002901  8  FC 82 00 00 FF F9 27 00 
   349)       169.3  Rx     00002902  8  FF FA 00 00 00 02 26 00 
   350)       171.2  Rx     00002901  8  FC 82 00 00 FF F9 27 00 
   351)       171.3  Rx     00002902  8  FF FA 00 00 00 01 26 00 
   352)       172.3  Rx     00000801  8  00 00 00 7F FF 80 08 00 
   353)       172.5  Rx     00000802  8  00 00 00 7F FF 80 08 00 
   354)       172.6  Rx         0003  8  F6 4F FF F6 4F FF 00 00 
   355)       172.7  Rx         0004  8  00 00 00 00 00 00 00 00 
   356)       172.9  Rx         0005  8  00 00 00 00 00 00 02 A0 
   357)       173.2  Rx     00002901  8  FC 82 00 00 FF F7 27 00 
   358)       173.3  Rx     00002902  8  FF FA 00 00 00 00 26 00 
   359)       175.2  Rx     00002901  8  FC 82 00 00 FF FA 27 00 
   360)       175.3  Rx     00002902  8  FF FA 00 00 00 00 26 00 
   361)       176.3  Rx     00000801  8  00 00 00 7F FF 80 08 00 
   362)       176.5  Rx     00000802  8  00 00 00 7F FF 80 08 00 
   363)       176.6  Rx         0003  8  F6 4F FF F6 4F FF 00 00 
   364)       176.7  Rx         0004  8  00 00 00 00 00 00 00 00 
   365)       176.8  Rx         0005  8  00 00 00 00 00 00 02 A2 
