;$FILEVERSION=1.1
;$STARTTIME=45797.0253317361
;
;   Start time: 5/20/2025 00:36:28.662.0
;   Generated by PCAN-View v5.3.2.952
;
;   Message Number
;   |         Time Offset (ms)
;   |         |        Type
;   |         |        |        ID (hex)
;   |         |        |        |     Data Length
;   |         |        |        |     |   Data Bytes (hex) ...
;   |         |        |        |     |   |
;---+--   ----+----  --+--  ----+---  +  -+ -- -- -- -- -- -- --
     1)        58.9  Rx     00002901  8  FC 62 00 00 00 03 25 00 
     2)        59.3  Rx     00002902  8  00 19 00 00 00 05 24 00 
     3)        59.6  Rx         0003  8  77 A2 D2 77 A2 D2 00 00 
     4)        59.7  Rx         0004  8  00 00 00 00 00 00 00 00 
     5)        59.9  Rx         0005  8  80 18 01 80 10 00 01 70 
     6)        60.0  Rx     00000801  8  00 00 00 7F FF 80 08 00 
     7)        60.2  Rx     00000802  8  00 00 00 7F FF 80 08 00 
     8)        60.9  Rx     00002901  8  FC 62 00 00 00 00 25 00 
     9)        61.2  Rx     00002902  8  00 19 00 00 00 06 24 00 
    10)        62.9  Rx     00002901  8  FC 62 00 00 00 02 25 00 
    11)        63.2  Rx     00002902  8  00 19 00 00 00 06 24 00 
    12)        63.6  Rx         0003  8  77 A2 D2 77 A2 D2 00 00 
    13)        63.8  Rx         0004  8  00 00 00 00 00 00 00 00 
    14)        63.9  Rx         0005  8  80 18 01 80 10 00 01 6F 
    15)        64.0  Rx     00000801  8  00 00 00 7F FF 80 08 00 
    16)        64.2  Rx     00000802  8  00 00 00 7F FF 80 08 00 
    17)        65.0  Rx     00002901  8  FC 62 00 00 00 00 25 00 
    18)        65.3  Rx     00002902  8  00 19 00 00 FF F5 24 00 
    19)        67.0  Rx     00002901  8  FC 62 00 00 00 06 25 00 
    20)        67.3  Rx     00002902  8  00 19 00 00 00 04 24 00 
    21)        67.6  Rx         0003  8  77 A2 D2 77 A2 D2 00 00 
    22)        67.8  Rx         0004  8  00 00 00 00 00 00 00 00 
    23)        67.9  Rx         0005  8  80 18 01 80 10 00 01 70 
    24)        68.0  Rx     00000801  8  00 00 00 7F FF 80 08 00 
    25)        68.2  Rx     00000802  8  00 00 00 7F FF 80 08 00 
    26)        69.0  Rx     00002901  8  FC 62 00 00 00 01 25 00 
    27)        69.3  Rx     00002902  8  00 19 00 00 FF FF 24 00 
    28)        70.9  Rx     00002901  8  FC 62 00 00 00 01 25 00 
    29)        71.3  Rx     00002902  8  00 19 00 00 00 05 24 00 
    30)        71.6  Rx         0003  8  77 A2 D2 77 A2 D2 00 00 
    31)        71.8  Rx         0004  8  00 00 00 00 00 00 00 00 
    32)        71.9  Rx         0005  8  80 18 01 80 10 00 01 6F 
    33)        72.0  Rx     00000801  8  00 00 00 7F FF 80 08 00 
    34)        72.2  Rx     00000802  8  00 00 00 7F FF 80 08 00 
    35)        73.0  Rx     00002901  8  FC 62 00 00 00 02 25 00 
    36)        73.3  Rx     00002902  8  00 19 00 00 00 03 24 00 
    37)        74.9  Rx     00002901  8  FC 62 00 00 00 05 25 00 
    38)        75.3  Rx     00002902  8  00 19 00 00 00 07 24 00 
    39)        75.6  Rx         0003  8  77 A2 D2 77 A2 D2 00 00 
    40)        75.7  Rx         0004  8  00 00 00 00 00 00 00 00 
    41)        75.9  Rx         0005  8  80 18 01 80 10 00 01 70 
    42)        76.0  Rx     00000801  8  00 00 00 7F FF 80 08 00 
    43)        76.2  Rx     00000802  8  00 00 00 7F FF 80 08 00 
    44)        76.9  Rx     00002901  8  FC 62 00 00 00 00 25 00 
    45)        77.2  Rx     00002902  8  00 19 00 00 00 05 24 00 
    46)        78.9  Rx     00002901  8  FC 62 00 00 00 04 25 00 
    47)        79.2  Rx     00002902  8  00 19 00 00 00 04 24 00 
    48)        79.6  Rx         0003  8  77 A2 D2 77 A2 D2 00 00 
    49)        79.8  Rx         0004  8  00 00 00 00 00 00 00 00 
    50)        79.9  Rx         0005  8  80 18 01 80 10 00 01 6F 
    51)        80.0  Rx     00000801  8  00 00 00 7F FF 80 08 00 
    52)        80.2  Rx     00000802  8  00 00 00 7F FF 80 08 00 
    53)        81.0  Rx     00002901  8  FC 62 00 00 00 01 25 00 
    54)        81.3  Rx     00002902  8  00 19 00 00 00 05 24 00 
    55)        83.0  Rx     00002901  8  FC 62 00 00 00 02 25 00 
    56)        83.3  Rx     00002902  8  00 19 00 00 00 05 24 00 
    57)        83.6  Rx         0003  8  77 A2 D2 77 A2 D2 00 00 
    58)        83.7  Rx         0004  8  00 00 00 00 00 00 00 00 
    59)        83.9  Rx         0005  8  80 18 01 80 10 00 01 70 
    60)        84.0  Rx     00000801  8  00 00 00 7F FF 80 08 00 
    61)        84.2  Rx     00000802  8  00 00 00 7F FF 80 08 00 
    62)        85.0  Rx     00002901  8  FC 62 00 00 00 01 25 00 
    63)        85.3  Rx     00002902  8  00 19 00 00 00 07 24 00 
    64)        87.0  Rx     00002901  8  FC 62 00 00 00 02 25 00 
    65)        87.3  Rx     00002902  8  00 19 00 00 00 05 24 00 
    66)        87.7  Rx         0003  8  77 A2 D2 77 A2 D2 00 00 
    67)        87.7  Rx         0004  8  00 00 00 00 00 00 00 00 
    68)        87.9  Rx         0005  8  80 18 01 80 10 00 01 6F 
    69)        88.0  Rx     00000801  8  00 00 00 7F FF 80 08 00 
    70)        88.2  Rx     00000802  8  00 00 00 7F FF 80 08 00 
    71)        88.9  Rx     00002901  8  FC 62 00 00 FF FF 25 00 
    72)        89.3  Rx     00002902  8  00 19 00 00 00 06 24 00 
    73)        90.9  Rx     00002901  8  FC 62 00 00 00 02 25 00 
    74)        91.3  Rx     00002902  8  00 19 00 00 00 05 24 00 
    75)        91.6  Rx         0003  8  77 A2 D2 77 A2 D2 00 00 
    76)        91.8  Rx         0004  8  00 00 00 00 00 00 00 00 
    77)        91.9  Rx         0005  8  80 18 01 80 10 00 01 70 
    78)        92.0  Rx     00000801  8  00 00 00 7F FF 80 08 00 
    79)        92.2  Rx     00000802  8  00 00 00 7F FF 80 08 00 
    80)        92.9  Rx     00002901  8  FC 62 00 00 00 01 25 00 
    81)        93.2  Rx     00002902  8  00 19 00 00 00 07 24 00 
    82)        94.9  Rx     00002901  8  FC 62 00 00 00 03 25 00 
    83)        95.2  Rx     00002902  8  00 19 00 00 00 05 24 00 
    84)        95.6  Rx         0003  8  77 A2 D2 77 A2 D2 00 00 
    85)        95.8  Rx         0004  8  00 00 00 00 00 00 00 00 
    86)        95.9  Rx         0005  8  80 18 01 80 10 00 01 6F 
    87)        96.0  Rx     00000801  8  00 00 00 7F FF 80 08 00 
    88)        96.2  Rx     00000802  8  00 00 00 7F FF 80 08 00 
    89)        97.0  Rx     00002901  8  FC 62 00 00 00 00 25 00 
    90)        97.3  Rx     00002902  8  00 19 00 00 00 07 24 00 
    91)        99.0  Rx     00002901  8  FC 62 00 00 00 02 25 00 
    92)        99.3  Rx     00002902  8  00 19 00 00 00 04 24 00 
    93)        99.6  Rx         0003  8  77 A2 D2 77 A2 D2 00 00 
    94)        99.8  Rx         0004  8  00 00 00 00 00 00 00 00 
    95)        99.9  Rx         0005  8  80 18 01 80 10 00 01 71 
    96)       100.0  Rx     00000801  8  00 00 00 7F FF 80 08 00 
    97)       100.2  Rx     00000802  8  00 00 00 7F FF 80 08 00 
    98)       101.0  Rx     00002901  8  FC 62 00 00 FF FF 25 00 
    99)       101.3  Rx     00002902  8  00 19 00 00 00 04 24 00 
   100)       102.9  Rx     00002901  8  FC 62 00 00 00 03 25 00 
   101)       103.3  Rx     00002902  8  00 19 00 00 00 05 24 00 
   102)       103.7  Rx         0003  8  77 A2 D2 77 A2 D2 00 00 
   103)       103.7  Rx         0004  8  00 00 00 00 00 00 00 00 
   104)       103.9  Rx         0005  8  80 18 01 80 10 00 01 6F 
   105)       104.0  Rx     00000801  8  00 00 00 7F FF 80 08 00 
   106)       104.2  Rx     00000802  8  00 00 00 7F FF 80 08 00 
   107)       104.9  Rx     00002901  8  FC 62 00 00 00 01 25 00 
   108)       105.3  Rx     00002902  8  00 19 00 00 00 06 24 00 
   109)       106.9  Rx     00002901  8  FC 62 00 00 00 04 25 00 
   110)       107.3  Rx     00002902  8  00 19 00 00 00 02 24 00 
   111)       107.6  Rx         0003  8  77 A2 D2 77 A2 D2 00 00 
   112)       107.8  Rx         0004  8  00 00 00 00 00 00 00 00 
   113)       107.9  Rx         0005  8  80 18 01 80 10 00 01 70 
   114)       108.0  Rx     00000801  8  00 00 00 7F FF 80 08 00 
   115)       108.2  Rx     00000802  8  00 00 00 7F FF 80 08 00 
   116)       108.9  Rx     00002901  8  FC 62 00 00 00 02 25 00 
   117)       109.2  Rx     00002902  8  00 19 00 00 00 06 24 00 
   118)       110.9  Rx     00002901  8  FC 62 00 00 00 05 25 00 
   119)       111.3  Rx     00002902  8  00 19 00 00 00 07 24 00 
   120)       111.6  Rx         0003  8  77 A2 D2 77 A2 D2 00 00 
   121)       111.8  Rx         0004  8  00 00 00 00 00 00 00 00 
   122)       111.9  Rx         0005  8  80 18 01 80 10 00 01 70 
   123)       112.0  Rx     00000801  8  00 00 00 7F FF 80 08 00 
   124)       112.2  Rx     00000802  8  00 00 00 7F FF 80 08 00 
   125)       113.0  Rx     00002901  8  FC 62 00 00 00 00 25 00 
   126)       113.3  Rx     00002902  8  00 19 00 00 00 06 24 00 
   127)       115.0  Rx     00002901  8  FC 62 00 00 00 03 25 00 
   128)       115.3  Rx     00002902  8  00 19 00 00 00 05 24 00 
   129)       115.6  Rx         0003  8  77 A2 D2 77 A2 D2 00 00 
   130)       115.8  Rx         0004  8  00 00 00 00 00 00 00 00 
   131)       115.9  Rx         0005  8  80 18 01 80 10 00 01 6F 
   132)       116.0  Rx     00000801  8  00 00 00 7F FF 80 08 00 
   133)       116.2  Rx     00000802  8  00 00 00 7F FF 80 08 00 
   134)       116.9  Rx     00002901  8  FC 62 00 00 00 01 25 00 
   135)       117.3  Rx     00002902  8  00 19 00 00 00 03 24 00 
   136)       119.0  Rx     00002901  8  FC 62 00 00 00 03 25 00 
   137)       119.3  Rx     00002902  8  00 19 00 00 00 03 24 00 
   138)       119.7  Rx         0003  8  77 A2 D2 77 A2 D2 00 00 
   139)       119.7  Rx         0004  8  00 00 00 00 00 00 00 00 
   140)       119.9  Rx         0005  8  80 18 01 80 10 00 01 70 
   141)       120.0  Rx     00000801  8  00 00 00 7F FF 80 08 00 
   142)       120.2  Rx     00000802  8  00 00 00 7F FF 80 08 00 
   143)       120.9  Rx     00002901  8  FC 62 00 00 00 00 25 00 
   144)       121.3  Rx     00002902  8  00 19 00 00 00 06 24 00 
   145)       122.9  Rx     00002901  8  FC 62 00 00 00 01 25 00 
   146)       123.3  Rx     00002902  8  00 19 00 00 00 02 24 00 
   147)       123.6  Rx         0003  8  77 A2 D2 77 A2 D2 00 00 
   148)       123.7  Rx         0004  8  00 00 00 00 00 00 00 00 
   149)       123.9  Rx         0005  8  80 18 01 80 10 00 01 6F 
   150)       124.0  Rx     00000801  8  00 00 00 7F FF 80 08 00 
   151)       124.2  Rx     00000802  8  00 00 00 7F FF 80 08 00 
   152)       124.9  Rx     00002901  8  FC 62 00 00 00 00 25 00 
   153)       125.2  Rx     00002902  8  00 19 00 00 00 04 24 00 
   154)       126.9  Rx     00002901  8  FC 62 00 00 00 01 25 00 
   155)       127.2  Rx     00002902  8  00 19 00 00 00 07 24 00 
   156)       127.6  Rx         0003  8  77 A2 D2 77 A2 D2 00 00 
   157)       127.8  Rx         0004  8  00 00 00 00 00 00 00 00 
   158)       127.9  Rx         0005  8  80 18 01 80 10 00 01 70 
   159)       128.0  Rx     00000801  8  00 00 00 7F FF 80 08 00 
   160)       128.2  Rx     00000802  8  00 00 00 7F FF 80 08 00 
   161)       129.0  Rx     00002901  8  FC 62 00 00 00 01 25 00 
   162)       129.3  Rx     00002902  8  00 19 00 00 00 07 24 00 
   163)       131.0  Rx     00002901  8  FC 62 00 00 00 04 25 00 
   164)       131.3  Rx     00002902  8  00 19 00 00 00 06 24 00 
   165)       131.6  Rx         0003  8  77 A2 D2 77 A2 D2 00 00 
   166)       131.8  Rx         0004  8  00 00 00 00 00 00 00 00 
   167)       131.9  Rx         0005  8  80 18 01 80 10 00 01 6F 
   168)       132.0  Rx     00000801  8  00 00 00 7F FF 80 08 00 
   169)       132.2  Rx     00000802  8  00 00 00 7F FF 80 08 00 
   170)       133.0  Rx     00002901  8  FC 62 00 00 00 00 25 00 
   171)       133.3  Rx     00002902  8  00 19 00 00 00 07 24 00 
   172)       135.0  Rx     00002901  8  FC 62 00 00 00 05 25 00 
   173)       135.3  Rx     00002902  8  00 19 00 00 00 0B 24 00 
   174)       135.6  Rx         0003  8  77 A2 D2 77 A2 D2 00 00 
   175)       135.7  Rx         0004  8  00 00 00 00 00 00 00 00 
   176)       135.9  Rx         0005  8  80 18 01 80 10 00 01 70 
   177)       136.0  Rx     00000801  8  00 00 00 7F FF 80 08 00 
   178)       136.2  Rx     00000802  8  00 00 00 7F FF 80 08 00 
   179)       136.9  Rx     00002901  8  FC 62 00 00 00 00 25 00 
   180)       137.3  Rx     00002902  8  00 19 00 00 00 06 24 00 
   181)       138.9  Rx     00002901  8  FC 62 00 00 00 05 25 00 
   182)       139.2  Rx     00002902  8  00 19 00 00 FF FA 24 00 
   183)       139.6  Rx         0003  8  77 A2 D2 77 A2 D2 00 00 
   184)       139.7  Rx         0004  8  00 00 00 00 00 00 00 00 
   185)       139.9  Rx         0005  8  80 18 01 80 10 00 01 6F 
   186)       140.0  Rx     00000801  8  00 00 00 7F FF 80 08 00 
   187)       140.2  Rx     00000802  8  00 00 00 7F FF 80 08 00 
   188)       140.9  Rx     00002901  8  FC 62 00 00 00 00 25 00 
   189)       141.3  Rx     00002902  8  00 19 00 00 FF F9 24 00 
   190)       142.9  Rx     00002901  8  FC 62 00 00 00 04 25 00 
   191)       143.2  Rx     00002902  8  00 19 00 00 00 05 24 00 
   192)       143.6  Rx         0003  8  77 A2 D2 77 A2 D2 00 00 
   193)       143.8  Rx         0004  8  00 00 00 00 00 00 00 00 
   194)       143.9  Rx         0005  8  80 18 01 80 10 00 01 70 
   195)       144.0  Rx     00000801  8  00 00 00 7F FF 80 08 00 
   196)       144.2  Rx     00000802  8  00 00 00 7F FF 80 08 00 
   197)       145.0  Rx     00002901  8  FC 62 00 00 00 00 25 00 
   198)       145.3  Rx     00002902  8  00 19 00 00 00 05 24 00 
   199)       147.0  Rx     00002901  8  FC 62 00 00 00 03 25 00 
   200)       147.3  Rx     00002902  8  00 19 00 00 00 05 24 00 
   201)       147.6  Rx         0003  8  77 A2 D2 77 A2 D2 00 00 
   202)       147.8  Rx         0004  8  00 00 00 00 00 00 00 00 
   203)       147.9  Rx         0005  8  80 18 01 80 10 00 01 6F 
   204)       148.0  Rx     00000801  8  00 00 00 7F FF 80 08 00 
   205)       148.2  Rx     00000802  8  00 00 00 7F FF 80 08 00 
   206)       149.0  Rx     00002901  8  FC 62 00 00 00 00 25 00 
   207)       149.3  Rx     00002902  8  00 19 00 00 00 06 24 00 
   208)       151.0  Rx     00002901  8  FC 62 00 00 00 02 25 00 
   209)       151.3  Rx     00002902  8  00 19 00 00 00 05 24 00 
   210)       151.6  Rx         0003  8  77 A2 D2 77 A2 D2 00 00 
   211)       151.7  Rx         0004  8  00 00 00 00 00 00 00 00 
   212)       151.9  Rx         0005  8  80 18 01 80 10 00 01 71 
   213)       152.0  Rx     00000801  8  00 00 00 7F FF 80 08 00 
   214)       152.2  Rx     00000802  8  00 00 00 7F FF 80 08 00 
   215)       152.9  Rx     00002901  8  FC 62 00 00 00 00 25 00 
   216)       153.3  Rx     00002902  8  00 19 00 00 00 06 24 00 
   217)       154.9  Rx     00002901  8  FC 62 00 00 00 01 25 00 
   218)       155.2  Rx     00002902  8  00 19 00 00 00 05 24 00 
   219)       155.6  Rx         0003  8  77 A2 D2 77 A2 D2 00 00 
   220)       155.7  Rx         0004  8  00 00 00 00 00 00 00 00 
   221)       155.9  Rx         0005  8  80 18 01 80 10 00 01 6F 
   222)       156.0  Rx     00000801  8  00 00 00 7F FF 80 08 00 
   223)       156.2  Rx     00000802  8  00 00 00 7F FF 80 08 00 
   224)       156.9  Rx     00002901  8  FC 62 00 00 00 02 25 00 
   225)       157.3  Rx     00002902  8  00 19 00 00 00 06 24 00 
   226)       158.9  Rx     00002901  8  FC 62 00 00 00 02 25 00 
   227)       159.2  Rx     00002902  8  00 19 00 00 00 04 24 00 
   228)       159.6  Rx         0003  8  77 A2 D2 77 A2 D2 00 00 
   229)       159.8  Rx         0004  8  00 00 00 00 00 00 00 00 
   230)       159.9  Rx         0005  8  80 18 01 80 10 00 01 70 
   231)       160.0  Rx     00000801  8  00 00 00 7F FF 80 08 00 
   232)       160.2  Rx     00000802  8  00 00 00 7F FF 80 08 00 
   233)       161.0  Rx     00002901  8  FC 62 00 00 00 02 25 00 
   234)       161.3  Rx     00002902  8  00 19 00 00 00 06 24 00 
   235)       163.0  Rx     00002901  8  FC 62 00 00 00 04 25 00 
   236)       163.3  Rx     00002902  8  00 19 00 00 00 04 24 00 
   237)       163.6  Rx         0003  8  77 A2 D2 77 A2 D2 00 00 
   238)       163.8  Rx         0004  8  00 00 00 00 00 00 00 00 
   239)       163.9  Rx         0005  8  80 18 01 80 10 00 01 6F 
   240)       164.0  Rx     00000801  8  00 00 00 7F FF 80 08 00 
   241)       164.2  Rx     00000802  8  00 00 00 7F FF 80 08 00 
   242)       165.0  Rx     00002901  8  FC 62 00 00 00 00 25 00 
   243)       165.3  Rx     00002902  8  00 19 00 00 00 06 24 00 
   244)       166.9  Rx     00002901  8  FC 62 00 00 00 01 25 00 
   245)       167.3  Rx     00002902  8  00 19 00 00 00 05 24 00 
   246)       167.6  Rx         0003  8  77 A2 D2 77 A2 D2 00 00 
   247)       167.8  Rx         0004  8  00 00 00 00 00 00 00 00 
   248)       167.9  Rx         0005  8  80 18 01 80 10 00 01 71 
   249)       168.0  Rx     00000801  8  00 00 00 7F FF 80 08 00 
   250)       168.2  Rx     00000802  8  00 00 00 7F FF 80 08 00 
   251)       168.9  Rx     00002901  8  FC 62 00 00 FF FF 25 00 
   252)       169.3  Rx     00002902  8  00 19 00 00 00 03 24 00 
   253)       170.9  Rx     00002901  8  FC 62 00 00 00 04 25 00 
   254)       171.3  Rx     00002902  8  00 19 00 00 00 05 24 00 
   255)       171.6  Rx         0003  8  77 A2 D2 77 A2 D2 00 00 
   256)       171.7  Rx         0004  8  00 00 00 00 00 00 00 00 
   257)       171.9  Rx         0005  8  80 18 01 80 10 00 01 6F 
   258)       172.0  Rx     00000801  8  00 00 00 7F FF 80 08 00 
   259)       172.2  Rx     00000802  8  00 00 00 7F FF 80 08 00 
   260)       172.9  Rx     00002901  8  FC 62 00 00 00 01 25 00 
   261)       173.3  Rx     00002902  8  00 19 00 00 00 05 24 00 
   262)       174.9  Rx     00002901  8  FC 62 00 00 00 04 25 00 
   263)       175.2  Rx     00002902  8  00 19 00 00 00 05 24 00 
   264)       175.6  Rx         0003  8  77 A2 D2 77 A2 D2 00 00 
   265)       175.8  Rx         0004  8  00 00 00 00 00 00 00 00 
   266)       175.9  Rx         0005  8  80 18 01 80 10 00 01 71 
   267)       176.1  Rx     00000801  8  00 00 00 7F FF 80 08 00 
   268)       176.2  Rx     00000802  8  00 00 00 7F FF 80 08 00 
   269)       177.0  Rx     00002901  8  FC 62 00 00 00 01 25 00 
   270)       177.3  Rx     00002902  8  00 19 00 00 00 06 24 00 
   271)       179.0  Rx     00002901  8  FC 62 00 00 00 03 25 00 
   272)       179.3  Rx     00002902  8  00 19 00 00 00 02 24 00 
   273)       179.6  Rx         0003  8  77 A2 D2 77 A2 D2 00 00 
   274)       179.8  Rx         0004  8  00 00 00 00 00 00 00 00 
   275)       179.9  Rx         0005  8  80 18 01 80 10 00 01 6E 
   276)       180.0  Rx     00000801  8  00 00 00 7F FF 80 08 00 
   277)       180.2  Rx     00000802  8  00 00 00 7F FF 80 08 00 
   278)       181.0  Rx     00002901  8  FC 62 00 00 00 01 25 00 
   279)       181.3  Rx     00002902  8  00 19 00 00 00 05 24 00 
   280)       182.9  Rx     00002901  8  FC 62 00 00 00 05 25 00 
   281)       183.3  Rx     00002902  8  00 19 00 00 00 07 24 00 
   282)       183.6  Rx         0003  8  77 A2 D2 77 A2 D2 00 00 
   283)       183.8  Rx         0004  8  00 00 00 00 00 00 00 00 
   284)       183.9  Rx         0005  8  80 18 01 80 10 00 01 6F 
   285)       184.0  Rx     00000801  8  00 00 00 7F FF 80 08 00 
   286)       184.2  Rx     00000802  8  00 00 00 7F FF 80 08 00 
   287)       185.0  Rx     00002901  8  FC 62 00 00 00 02 25 00 
   288)       185.3  Rx     00002902  8  00 19 00 00 00 07 24 00 
   289)       186.9  Rx     00002901  8  FC 62 00 00 00 02 25 00 
   290)       187.3  Rx     00002902  8  00 19 00 00 00 07 24 00 
   291)       187.6  Rx         0003  8  77 A2 D2 77 A2 D2 00 00 
   292)       187.7  Rx         0004  8  00 00 00 00 00 00 00 00 
   293)       187.9  Rx         0005  8  80 18 01 80 10 00 01 6F 
   294)       188.0  Rx     00000801  8  00 00 00 7F FF 80 08 00 
   295)       188.2  Rx     00000802  8  00 00 00 7F FF 80 08 00 
   296)       188.9  Rx     00002901  8  FC 62 00 00 00 00 25 00 
   297)       189.3  Rx     00002902  8  00 19 00 00 00 06 24 00 
   298)       190.9  Rx     00002901  8  FC 62 00 00 00 03 25 00 
   299)       191.2  Rx     00002902  8  00 19 00 00 00 04 24 00 
   300)       191.6  Rx         0003  8  77 A2 D2 77 A2 D2 00 00 
   301)       191.8  Rx         0004  8  00 00 00 00 00 00 00 00 
   302)       191.9  Rx         0005  8  80 18 01 80 10 00 01 70 
   303)       192.0  Rx     00000801  8  00 00 00 7F FF 80 08 00 
   304)       192.2  Rx     00000802  8  00 00 00 7F FF 80 08 00 
   305)       193.0  Rx     00002901  8  FC 62 00 00 00 00 25 00 
   306)       193.3  Rx     00002902  8  00 19 00 00 00 04 24 00 
   307)       195.0  Rx     00002901  8  FC 62 00 00 00 03 25 00 
   308)       195.3  Rx     00002902  8  00 19 00 00 00 05 24 00 
   309)       195.6  Rx         0003  8  77 A2 D2 77 A2 D2 00 00 
   310)       195.8  Rx         0004  8  00 00 00 00 00 00 00 00 
   311)       195.9  Rx         0005  8  80 18 01 80 10 00 01 6E 
   312)       196.0  Rx     00000801  8  00 00 00 7F FF 80 08 00 
   313)       196.2  Rx     00000802  8  00 00 00 7F FF 80 08 00 
   314)       197.0  Rx     00002901  8  FC 62 00 00 00 00 25 00 
   315)       197.3  Rx     00002902  8  00 19 00 00 00 05 24 00 
   316)       198.9  Rx     00002901  8  FC 62 00 00 00 03 25 00 
   317)       199.3  Rx     00002902  8  00 19 00 00 00 03 24 00 
   318)       199.6  Rx         0003  8  77 A2 D2 77 A2 D2 00 00 
   319)       199.8  Rx         0004  8  00 00 00 00 00 00 00 00 
   320)       199.9  Rx         0005  8  80 18 01 80 10 00 01 6F 
   321)       200.0  Rx     00000801  8  00 00 00 7F FF 80 08 00 
   322)       200.2  Rx     00000802  8  00 00 00 7F FF 80 08 00 
   323)       200.9  Rx     00002901  8  FC 62 00 00 00 01 25 00 
   324)       201.3  Rx     00002902  8  00 19 00 00 00 02 24 00 
   325)       202.9  Rx     00002901  8  FC 62 00 00 00 05 25 00 
   326)       203.3  Rx     00002902  8  00 19 00 00 00 05 24 00 
   327)       203.6  Rx         0003  8  77 A2 D2 77 A2 D2 00 00 
   328)       203.7  Rx         0004  8  00 00 00 00 00 00 00 00 
   329)       203.9  Rx         0005  8  80 18 01 80 10 00 01 70 
   330)       204.0  Rx     00000801  8  00 00 00 7F FF 80 08 00 
   331)       204.2  Rx     00000802  8  00 00 00 7F FF 80 08 00 
   332)       204.9  Rx     00002901  8  FC 62 00 00 00 00 25 00 
   333)       205.3  Rx     00002902  8  00 19 00 00 00 0A 24 00 
   334)       206.9  Rx     00002901  8  FC 62 00 00 00 02 25 00 
   335)       207.2  Rx     00002902  8  00 19 00 00 00 05 24 00 
   336)       207.6  Rx         0003  8  77 A2 D2 77 A2 D2 00 00 
   337)       207.8  Rx         0004  8  00 00 00 00 00 00 00 00 
   338)       207.9  Rx         0005  8  80 18 01 80 10 00 01 6F 
   339)       208.1  Rx     00000801  8  00 00 00 7F FF 80 08 00 
   340)       208.2  Rx     00000802  8  00 00 00 7F FF 80 08 00 
   341)       209.0  Rx     00002901  8  FC 62 00 00 00 02 25 00 
   342)       209.3  Rx     00002902  8  00 19 00 00 00 03 24 00 
   343)       211.0  Rx     00002901  8  FC 62 00 00 00 04 25 00 
   344)       211.3  Rx     00002902  8  00 19 00 00 00 01 24 00 
   345)       211.6  Rx         0003  8  77 A2 D2 77 A2 D2 00 00 
   346)       211.8  Rx         0004  8  00 00 00 00 00 00 00 00 
   347)       211.9  Rx         0005  8  80 18 01 80 10 00 01 70 
   348)       212.0  Rx     00000801  8  00 00 00 7F FF 80 08 00 
   349)       212.2  Rx     00000802  8  00 00 00 7F FF 80 08 00 
   350)       213.0  Rx     00002901  8  FC 62 00 00 00 01 25 00 
   351)       213.3  Rx     00002902  8  00 19 00 00 00 06 24 00 
   352)       214.9  Rx     00002901  8  FC 62 00 00 00 02 25 00 
   353)       215.3  Rx     00002902  8  00 19 00 00 00 04 24 00 
   354)       215.6  Rx         0003  8  77 A2 D2 77 A2 D2 00 00 
   355)       215.8  Rx         0004  8  00 00 00 00 00 00 00 00 
   356)       215.9  Rx         0005  8  80 18 01 80 10 00 01 6F 
   357)       216.0  Rx     00000801  8  00 00 00 7F FF 80 08 00 
   358)       216.2  Rx     00000802  8  00 00 00 7F FF 80 08 00 
   359)       217.0  Rx     00002901  8  FC 62 00 00 00 02 25 00 
   360)       217.3  Rx     00002902  8  00 19 00 00 00 05 24 00 
   361)       218.9  Rx     00002901  8  FC 62 00 00 00 02 25 00 
   362)       219.3  Rx     00002902  8  00 19 00 00 00 06 24 00 
   363)       219.6  Rx         0003  8  77 A2 D2 77 A2 D2 00 00 
   364)       219.7  Rx         0004  8  00 00 00 00 00 00 00 00 
   365)       219.9  Rx         0005  8  80 18 01 80 10 00 01 70 
