;$FILEVERSION=1.1
;$STARTTIME=45797.0259818403
;
;   Start time: 5/20/2025 00:37:24.831.0
;   Generated by PCAN-View v5.3.2.952
;
;   Message Number
;   |         Time Offset (ms)
;   |         |        Type
;   |         |        |        ID (hex)
;   |         |        |        |     Data Length
;   |         |        |        |     |   Data Bytes (hex) ...
;   |         |        |        |     |   |
;---+--   ----+----  --+--  ----+---  +  -+ -- -- -- -- -- -- --
     1)        85.7  Rx     00002902  8  00 1C 00 00 00 00 24 00 
     2)        85.8  Rx     00002901  8  FC 63 00 00 FF FF 26 00 
     3)        87.7  Rx     00002902  8  00 1C 00 00 00 00 24 00 
     4)        87.8  Rx     00002901  8  FC 63 00 00 FF FE 26 00 
     5)        87.9  Rx         0003  8  77 C2 D6 77 C2 D6 00 00 
     6)        88.1  Rx         0004  8  00 00 00 00 00 00 00 00 
     7)        88.2  Rx         0005  8  80 18 01 80 10 00 02 18 
     8)        88.4  Rx     00000801  8  00 00 00 7F FF 80 08 00 
     9)        88.5  Rx     00000802  8  00 00 00 7F FF 80 08 00 
    10)        89.7  Rx     00002902  8  00 1C 00 00 FF FF 24 00 
    11)        89.8  Rx     00002901  8  FC 63 00 00 FF FF 26 00 
    12)        91.7  Rx     00002902  8  00 1C 00 00 FF FF 24 00 
    13)        91.8  Rx     00002901  8  FC 63 00 00 00 02 26 00 
    14)        91.9  Rx         0003  8  77 C2 D6 77 C2 D6 00 00 
    15)        92.1  Rx         0004  8  00 00 00 00 00 00 00 00 
    16)        92.2  Rx         0005  8  80 18 01 80 10 00 02 16 
    17)        92.4  Rx     00000801  8  00 00 00 7F FF 80 08 00 
    18)        92.5  Rx     00000802  8  00 00 00 7F FF 80 08 00 
    19)        93.7  Rx     00002902  8  00 1C 00 00 00 00 24 00 
    20)        93.8  Rx     00002901  8  FC 63 00 00 FF FD 26 00 
    21)        95.7  Rx     00002902  8  00 1C 00 00 FF FF 24 00 
    22)        95.8  Rx     00002901  8  FC 63 00 00 00 00 26 00 
    23)        95.9  Rx         0003  8  77 C2 D6 77 C2 D6 00 00 
    24)        96.1  Rx         0004  8  00 00 00 00 00 00 00 00 
    25)        96.2  Rx         0005  8  80 18 01 80 10 00 02 15 
    26)        96.3  Rx     00000801  8  00 00 00 7F FF 80 08 00 
    27)        96.5  Rx     00000802  8  00 00 00 7F FF 80 08 00 
    28)        97.7  Rx     00002902  8  00 1C 00 00 FF FE 24 00 
    29)        97.8  Rx     00002901  8  FC 63 00 00 00 00 26 00 
    30)        99.7  Rx     00002902  8  00 1C 00 00 00 01 24 00 
    31)        99.8  Rx     00002901  8  FC 63 00 00 00 00 26 00 
    32)       100.0  Rx         0003  8  77 C2 D6 77 C2 D6 00 00 
    33)       100.1  Rx         0004  8  00 00 00 00 00 00 00 00 
    34)       100.2  Rx         0005  8  80 18 01 80 10 00 02 15 
    35)       100.3  Rx     00000801  8  00 00 00 7F FF 80 08 00 
    36)       100.5  Rx     00000802  8  00 00 00 7F FF 80 08 00 
    37)       101.7  Rx     00002902  8  00 1C 00 00 00 00 24 00 
    38)       101.8  Rx     00002901  8  FC 63 00 00 00 00 26 00 
    39)       103.7  Rx     00002902  8  00 1C 00 00 FF FF 24 00 
    40)       103.8  Rx     00002901  8  FC 63 00 00 FF FE 26 00 
    41)       104.0  Rx         0003  8  77 C2 D6 77 C2 D6 00 00 
    42)       104.1  Rx         0004  8  00 00 00 00 00 00 00 00 
    43)       104.2  Rx         0005  8  80 18 01 80 10 00 02 14 
    44)       104.4  Rx     00000801  8  00 00 00 7F FF 80 08 00 
    45)       104.5  Rx     00000802  8  00 00 00 7F FF 80 08 00 
    46)       105.7  Rx     00002902  8  00 1C 00 00 00 00 24 00 
    47)       105.8  Rx     00002901  8  FC 63 00 00 FF FB 26 00 
    48)       107.7  Rx     00002902  8  00 1C 00 00 00 00 24 00 
    49)       107.8  Rx     00002901  8  FC 63 00 00 FF FE 26 00 
    50)       108.0  Rx         0003  8  77 C2 D6 77 C2 D6 00 00 
    51)       108.1  Rx         0004  8  00 00 00 00 00 00 00 00 
    52)       108.2  Rx         0005  8  80 18 01 80 10 00 02 19 
    53)       108.3  Rx     00000801  8  00 00 00 7F FF 80 08 00 
    54)       108.5  Rx     00000802  8  00 00 00 7F FF 80 08 00 
    55)       109.7  Rx     00002902  8  00 1C 00 00 00 00 24 00 
    56)       109.8  Rx     00002901  8  FC 63 00 00 FF FE 26 00 
    57)       111.7  Rx     00002902  8  00 1C 00 00 00 00 24 00 
    58)       111.8  Rx     00002901  8  FC 63 00 00 00 01 26 00 
    59)       111.9  Rx         0003  8  77 C2 D6 77 C2 D6 00 00 
    60)       112.1  Rx         0004  8  00 00 00 00 00 00 00 00 
    61)       112.2  Rx         0005  8  80 18 01 80 10 00 02 17 
    62)       112.3  Rx     00000801  8  00 00 00 7F FF 80 08 00 
    63)       112.5  Rx     00000802  8  00 00 00 7F FF 80 08 00 
    64)       113.7  Rx     00002902  8  00 1C 00 00 FF FE 24 00 
    65)       113.8  Rx     00002901  8  FC 63 00 00 00 00 26 00 
    66)       115.7  Rx     00002902  8  00 1C 00 00 00 00 24 00 
    67)       115.8  Rx     00002901  8  FC 63 00 00 FF FE 26 00 
    68)       116.0  Rx         0003  8  77 C2 D6 77 C2 D6 00 00 
    69)       116.1  Rx         0004  8  00 00 00 00 00 00 00 00 
    70)       116.2  Rx         0005  8  80 18 01 80 10 00 02 15 
    71)       116.3  Rx     00000801  8  00 00 00 7F FF 80 08 00 
    72)       116.5  Rx     00000802  8  00 00 00 7F FF 80 08 00 
    73)       117.7  Rx     00002902  8  00 1C 00 00 00 00 24 00 
    74)       117.8  Rx     00002901  8  FC 63 00 00 FF FE 26 00 
    75)       119.7  Rx     00002902  8  00 1C 00 00 00 00 24 00 
    76)       119.8  Rx     00002901  8  FC 63 00 00 00 01 26 00 
    77)       119.9  Rx         0003  8  77 C2 D6 77 C2 D6 00 00 
    78)       120.1  Rx         0004  8  00 00 00 00 00 00 00 00 
    79)       120.2  Rx         0005  8  80 18 01 80 10 00 02 17 
    80)       120.4  Rx     00000801  8  00 00 00 7F FF 80 08 00 
    81)       120.5  Rx     00000802  8  00 00 00 7F FF 80 08 00 
    82)       121.7  Rx     00002902  8  00 1C 00 00 FF FF 24 00 
    83)       121.8  Rx     00002901  8  FC 63 00 00 00 00 26 00 
    84)       123.7  Rx     00002902  8  00 1C 00 00 FF FF 24 00 
    85)       123.8  Rx     00002901  8  FC 63 00 00 00 00 26 00 
    86)       123.9  Rx         0003  8  77 C2 D6 77 C2 D6 00 00 
    87)       124.1  Rx         0004  8  00 00 00 00 00 00 00 00 
    88)       124.2  Rx         0005  8  80 18 01 80 10 00 02 15 
    89)       124.4  Rx     00000801  8  00 00 00 7F FF 80 08 00 
    90)       124.5  Rx     00000802  8  00 00 00 7F FF 80 08 00 
    91)       125.7  Rx     00002902  8  00 1C 00 00 00 01 24 00 
    92)       125.8  Rx     00002901  8  FC 63 00 00 00 00 26 00 
    93)       127.7  Rx     00002902  8  00 1C 00 00 00 00 24 00 
    94)       127.8  Rx     00002901  8  FC 63 00 00 FF FF 26 00 
    95)       127.9  Rx         0003  8  77 C2 D6 77 C2 D6 00 00 
    96)       128.1  Rx         0004  8  00 00 00 00 00 00 00 00 
    97)       128.2  Rx         0005  8  80 18 01 80 10 00 02 16 
    98)       128.3  Rx     00000801  8  00 00 00 7F FF 80 08 00 
    99)       128.5  Rx     00000802  8  00 00 00 7F FF 80 08 00 
   100)       129.7  Rx     00002902  8  00 1C 00 00 FF FF 24 00 
   101)       129.8  Rx     00002901  8  FC 63 00 00 FF FE 26 00 
   102)       131.7  Rx     00002902  8  00 1C 00 00 00 00 24 00 
   103)       131.8  Rx     00002901  8  FC 63 00 00 FF FE 26 00 
   104)       132.0  Rx         0003  8  77 C2 D6 77 C2 D6 00 00 
   105)       132.1  Rx         0004  8  00 00 00 00 00 00 00 00 
   106)       132.2  Rx         0005  8  80 18 01 80 10 00 02 15 
   107)       132.3  Rx     00000801  8  00 00 00 7F FF 80 08 00 
   108)       132.5  Rx     00000802  8  00 00 00 7F FF 80 08 00 
   109)       133.7  Rx     00002902  8  00 1C 00 00 FF FD 24 00 
   110)       133.8  Rx     00002901  8  FC 63 00 00 00 00 26 00 
   111)       135.7  Rx     00002902  8  00 1C 00 00 00 00 24 00 
   112)       135.8  Rx     00002901  8  FC 63 00 00 00 00 26 00 
   113)       136.0  Rx         0003  8  77 C2 D6 77 C2 D6 00 00 
   114)       136.1  Rx         0004  8  00 00 00 00 00 00 00 00 
   115)       136.2  Rx         0005  8  80 18 01 80 10 00 02 16 
   116)       136.4  Rx     00000801  8  00 00 00 7F FF 80 08 00 
   117)       136.5  Rx     00000802  8  00 00 00 7F FF 80 08 00 
   118)       137.7  Rx     00002902  8  00 1C 00 00 FF FF 24 00 
   119)       137.8  Rx     00002901  8  FC 63 00 00 FF FF 26 00 
   120)       139.7  Rx     00002902  8  00 1C 00 00 FF FF 24 00 
   121)       139.8  Rx     00002901  8  FC 63 00 00 FF FF 26 00 
   122)       139.9  Rx         0003  8  77 C2 D6 77 C2 D6 00 00 
   123)       140.1  Rx         0004  8  00 00 00 00 00 00 00 00 
   124)       140.2  Rx         0005  8  80 18 01 80 10 00 02 16 
   125)       140.3  Rx     00000801  8  00 00 00 7F FF 80 08 00 
   126)       140.5  Rx     00000802  8  00 00 00 7F FF 80 08 00 
   127)       141.7  Rx     00002902  8  00 1C 00 00 00 00 24 00 
   128)       141.8  Rx     00002901  8  FC 63 00 00 00 02 26 00 
   129)       143.7  Rx     00002902  8  00 1C 00 00 FF FE 24 00 
   130)       143.8  Rx     00002901  8  FC 63 00 00 00 01 26 00 
   131)       143.9  Rx         0003  8  77 C2 D6 77 C2 D6 00 00 
   132)       144.1  Rx         0004  8  00 00 00 00 00 00 00 00 
   133)       144.2  Rx         0005  8  80 18 01 80 10 00 02 15 
   134)       144.3  Rx     00000801  8  00 00 00 7F FF 80 08 00 
   135)       144.5  Rx     00000802  8  00 00 00 7F FF 80 08 00 
   136)       145.7  Rx     00002902  8  00 1C 00 00 00 00 24 00 
   137)       145.8  Rx     00002901  8  FC 63 00 00 FF FF 26 00 
   138)       147.7  Rx     00002902  8  00 1C 00 00 00 01 24 00 
   139)       147.8  Rx     00002901  8  FC 63 00 00 FF FE 26 00 
   140)       148.0  Rx         0003  8  77 C2 D6 77 C2 D6 00 00 
   141)       148.1  Rx         0004  8  00 00 00 00 00 00 00 00 
   142)       148.2  Rx         0005  8  80 18 01 80 10 00 02 15 
   143)       148.3  Rx     00000801  8  00 00 00 7F FF 80 08 00 
   144)       148.5  Rx     00000802  8  00 00 00 7F FF 80 08 00 
   145)       149.7  Rx     00002902  8  00 1C 00 00 00 00 24 00 
   146)       149.8  Rx     00002901  8  FC 63 00 00 00 00 26 00 
   147)       151.7  Rx     00002902  8  00 1C 00 00 00 00 24 00 
   148)       151.8  Rx     00002901  8  FC 63 00 00 FF FE 26 00 
   149)       151.9  Rx         0003  8  77 C2 D6 77 C2 D6 00 00 
   150)       152.1  Rx         0004  8  00 00 00 00 00 00 00 00 
   151)       152.2  Rx         0005  8  80 18 01 80 10 00 02 15 
   152)       152.4  Rx     00000801  8  00 00 00 7F FF 80 08 00 
   153)       152.5  Rx     00000802  8  00 00 00 7F FF 80 08 00 
   154)       153.7  Rx     00002902  8  00 1C 00 00 00 00 24 00 
   155)       153.8  Rx     00002901  8  FC 63 00 00 FF FF 26 00 
   156)       155.7  Rx     00002902  8  00 1C 00 00 FF FF 24 00 
   157)       155.8  Rx     00002901  8  FC 63 00 00 FF FF 26 00 
   158)       155.9  Rx         0003  8  77 C2 D6 77 C2 D6 00 00 
   159)       156.1  Rx         0004  8  00 00 00 00 00 00 00 00 
   160)       156.2  Rx         0005  8  80 18 01 80 10 00 02 15 
   161)       156.4  Rx     00000801  8  00 00 00 7F FF 80 08 00 
   162)       156.5  Rx     00000802  8  00 00 00 7F FF 80 08 00 
   163)       157.7  Rx     00002902  8  00 1C 00 00 00 00 24 00 
   164)       157.8  Rx     00002901  8  FC 63 00 00 FF FF 26 00 
   165)       159.7  Rx     00002902  8  00 1C 00 00 FF FF 24 00 
   166)       159.8  Rx     00002901  8  FC 63 00 00 FF FF 26 00 
   167)       159.9  Rx         0003  8  77 C2 D6 77 C2 D6 00 00 
   168)       160.1  Rx         0004  8  00 00 00 00 00 00 00 00 
   169)       160.2  Rx         0005  8  80 18 01 80 10 00 02 14 
   170)       160.3  Rx     00000801  8  00 00 00 7F FF 80 08 00 
   171)       160.5  Rx     00000802  8  00 00 00 7F FF 80 08 00 
   172)       161.7  Rx     00002902  8  00 1C 00 00 00 00 24 00 
   173)       161.8  Rx     00002901  8  FC 63 00 00 00 00 26 00 
   174)       163.7  Rx     00002902  8  00 1C 00 00 00 00 24 00 
   175)       163.8  Rx     00002901  8  FC 63 00 00 00 00 26 00 
   176)       164.0  Rx         0003  8  77 C2 D6 77 C2 D6 00 00 
   177)       164.1  Rx         0004  8  00 00 00 00 00 00 00 00 
   178)       164.2  Rx         0005  8  80 18 01 80 10 00 02 17 
   179)       164.3  Rx     00000801  8  00 00 00 7F FF 80 08 00 
   180)       164.5  Rx     00000802  8  00 00 00 7F FF 80 08 00 
   181)       165.7  Rx     00002902  8  00 1C 00 00 FF FF 24 00 
   182)       165.8  Rx     00002901  8  FC 63 00 00 FF FE 26 00 
   183)       167.7  Rx     00002902  8  00 1C 00 00 00 00 24 00 
   184)       167.8  Rx     00002901  8  FC 63 00 00 FF FD 26 00 
   185)       168.0  Rx         0003  8  77 C2 D6 77 C2 D6 00 00 
   186)       168.1  Rx         0004  8  00 00 00 00 00 00 00 00 
   187)       168.2  Rx         0005  8  80 18 01 80 10 00 02 14 
   188)       168.4  Rx     00000801  8  00 00 00 7F FF 80 08 00 
   189)       168.5  Rx     00000802  8  00 00 00 7F FF 80 08 00 
   190)       169.7  Rx     00002902  8  00 1C 00 00 FF FE 24 00 
   191)       169.8  Rx     00002901  8  FC 63 00 00 FF FF 26 00 
   192)       171.7  Rx     00002902  8  00 1C 00 00 FF FF 24 00 
   193)       171.8  Rx     00002901  8  FC 63 00 00 00 00 26 00 
   194)       172.0  Rx         0003  8  77 C2 D6 77 C2 D6 00 00 
   195)       172.1  Rx         0004  8  00 00 00 00 00 00 00 00 
   196)       172.2  Rx         0005  8  80 18 01 80 10 00 02 14 
   197)       172.4  Rx     00000801  8  00 00 00 7F FF 80 08 00 
   198)       172.5  Rx     00000802  8  00 00 00 7F FF 80 08 00 
   199)       173.7  Rx     00002902  8  00 1C 00 00 00 00 24 00 
   200)       173.8  Rx     00002901  8  FC 63 00 00 00 02 26 00 
   201)       175.7  Rx     00002902  8  00 1C 00 00 00 00 24 00 
   202)       175.8  Rx     00002901  8  FC 63 00 00 00 01 26 00 
   203)       175.9  Rx         0003  8  77 C2 D6 77 C2 D6 00 00 
   204)       176.1  Rx         0004  8  00 00 00 00 00 00 00 00 
   205)       176.2  Rx         0005  8  80 18 01 80 10 00 02 16 
   206)       176.3  Rx     00000801  8  00 00 00 7F FF 80 08 00 
   207)       176.5  Rx     00000802  8  00 00 00 7F FF 80 08 00 
   208)       177.7  Rx     00002902  8  00 1C 00 00 00 00 24 00 
   209)       177.8  Rx     00002901  8  FC 63 00 00 FF FF 26 00 
   210)       179.7  Rx     00002902  8  00 1C 00 00 00 01 24 00 
   211)       179.8  Rx     00002901  8  FC 63 00 00 00 00 26 00 
   212)       180.0  Rx         0003  8  77 C2 D6 77 C2 D6 00 00 
   213)       180.1  Rx         0004  8  00 00 00 00 00 00 00 00 
   214)       180.2  Rx         0005  8  80 18 01 80 10 00 02 14 
   215)       180.3  Rx     00000801  8  00 00 00 7F FF 80 08 00 
   216)       180.5  Rx     00000802  8  00 00 00 7F FF 80 08 00 
   217)       181.7  Rx     00002902  8  00 1C 00 00 00 00 24 00 
   218)       181.8  Rx     00002901  8  FC 63 00 00 FF FE 26 00 
   219)       183.7  Rx     00002902  8  00 1C 00 00 FF FD 24 00 
   220)       183.8  Rx     00002901  8  FC 63 00 00 FF FE 26 00 
   221)       183.9  Rx         0003  8  77 C2 D6 77 C2 D6 00 00 
   222)       184.1  Rx         0004  8  00 00 00 00 00 00 00 00 
   223)       184.2  Rx         0005  8  80 18 01 80 10 00 02 14 
   224)       184.4  Rx     00000801  8  00 00 00 7F FF 80 08 00 
   225)       184.5  Rx     00000802  8  00 00 00 7F FF 80 08 00 
   226)       185.7  Rx     00002902  8  00 1C 00 00 00 00 24 00 
   227)       185.8  Rx     00002901  8  FC 63 00 00 00 00 26 00 
   228)       187.7  Rx     00002902  8  00 1C 00 00 00 01 24 00 
   229)       187.8  Rx     00002901  8  FC 63 00 00 00 00 26 00 
   230)       187.9  Rx         0003  8  77 C2 D6 77 C2 D6 00 00 
   231)       188.1  Rx         0004  8  00 00 00 00 00 00 00 00 
   232)       188.2  Rx         0005  8  80 18 01 80 10 00 02 15 
   233)       188.4  Rx     00000801  8  00 00 00 7F FF 80 08 00 
   234)       188.5  Rx     00000802  8  00 00 00 7F FF 80 08 00 
   235)       189.7  Rx     00002902  8  00 1C 00 00 FF FF 24 00 
   236)       189.8  Rx     00002901  8  FC 63 00 00 FF FF 26 00 
   237)       191.7  Rx     00002902  8  00 1C 00 00 00 00 24 00 
   238)       191.8  Rx     00002901  8  FC 63 00 00 FF FE 26 00 
   239)       191.9  Rx         0003  8  77 C2 D6 77 C2 D6 00 00 
   240)       192.1  Rx         0004  8  00 00 00 00 00 00 00 00 
   241)       192.2  Rx         0005  8  80 18 01 80 10 00 02 12 
   242)       192.3  Rx     00000801  8  00 00 00 7F FF 80 08 00 
   243)       192.5  Rx     00000802  8  00 00 00 7F FF 80 08 00 
   244)       193.7  Rx     00002902  8  00 1C 00 00 00 00 24 00 
   245)       193.8  Rx     00002901  8  FC 63 00 00 00 00 26 00 
   246)       195.7  Rx     00002902  8  00 1C 00 00 FF FD 24 00 
   247)       195.8  Rx     00002901  8  FC 63 00 00 00 00 26 00 
   248)       196.0  Rx         0003  8  77 C2 D6 77 C2 D6 00 00 
   249)       196.1  Rx         0004  8  00 00 00 00 00 00 00 00 
   250)       196.2  Rx         0005  8  80 18 01 80 10 00 02 15 
   251)       196.3  Rx     00000801  8  00 00 00 7F FF 80 08 00 
   252)       196.5  Rx     00000802  8  00 00 00 7F FF 80 08 00 
   253)       197.7  Rx     00002902  8  00 1C 00 00 00 00 24 00 
   254)       197.8  Rx     00002901  8  FC 63 00 00 FF FF 26 00 
   255)       199.7  Rx     00002902  8  00 1C 00 00 FF FF 24 00 
   256)       199.8  Rx     00002901  8  FC 63 00 00 FF FF 26 00 
   257)       200.0  Rx         0003  8  77 C2 D6 77 C2 D6 00 00 
   258)       200.1  Rx         0004  8  00 00 00 00 00 00 00 00 
   259)       200.2  Rx         0005  8  80 18 01 80 10 00 02 11 
   260)       200.4  Rx     00000801  8  00 00 00 7F FF 80 08 00 
   261)       200.5  Rx     00000802  8  00 00 00 7F FF 80 08 00 
   262)       201.7  Rx     00002902  8  00 1C 00 00 00 01 24 00 
   263)       201.8  Rx     00002901  8  FC 63 00 00 00 00 26 00 
   264)       203.7  Rx     00002902  8  00 1C 00 00 00 00 24 00 
   265)       203.8  Rx     00002901  8  FC 63 00 00 00 00 26 00 
   266)       204.0  Rx         0003  8  77 C2 D6 77 C2 D6 00 00 
   267)       204.1  Rx         0004  8  00 00 00 00 00 00 00 00 
   268)       204.2  Rx         0005  8  80 18 01 80 10 00 02 13 
   269)       204.4  Rx     00000801  8  00 00 00 7F FF 80 08 00 
   270)       204.5  Rx     00000802  8  00 00 00 7F FF 80 08 00 
   271)       205.7  Rx     00002902  8  00 1C 00 00 00 00 24 00 
   272)       205.8  Rx     00002901  8  FC 63 00 00 00 00 26 00 
   273)       207.7  Rx     00002902  8  00 1C 00 00 FF FE 24 00 
   274)       207.8  Rx     00002901  8  FC 63 00 00 00 00 26 00 
   275)       207.9  Rx         0003  8  77 C2 D6 77 C2 D6 00 00 
   276)       208.1  Rx         0004  8  00 00 00 00 00 00 00 00 
   277)       208.2  Rx         0005  8  80 18 01 80 10 00 02 16 
   278)       208.3  Rx     00000801  8  00 00 00 7F FF 80 08 00 
   279)       208.5  Rx     00000802  8  00 00 00 7F FF 80 08 00 
   280)       209.7  Rx     00002902  8  00 1C 00 00 00 00 24 00 
   281)       209.8  Rx     00002901  8  FC 63 00 00 00 01 26 00 
   282)       211.7  Rx     00002902  8  00 1C 00 00 FF FE 24 00 
   283)       211.8  Rx     00002901  8  FC 63 00 00 00 00 26 00 
   284)       212.0  Rx         0003  8  77 C2 D6 77 C2 D6 00 00 
   285)       212.1  Rx         0004  8  00 00 00 00 00 00 00 00 
   286)       212.2  Rx         0005  8  80 18 01 80 10 00 02 14 
   287)       212.3  Rx     00000801  8  00 00 00 7F FF 80 08 00 
   288)       212.5  Rx     00000802  8  00 00 00 7F FF 80 08 00 
   289)       213.7  Rx     00002902  8  00 1C 00 00 00 00 24 00 
   290)       213.8  Rx     00002901  8  FC 63 00 00 00 00 26 00 
   291)       215.7  Rx     00002902  8  00 1C 00 00 FF FD 24 00 
   292)       215.8  Rx     00002901  8  FC 63 00 00 FF FF 26 00 
   293)       215.9  Rx         0003  8  77 C2 D6 77 C2 D6 00 00 
   294)       216.1  Rx         0004  8  00 00 00 00 00 00 00 00 
   295)       216.2  Rx         0005  8  80 18 01 80 10 00 02 15 
   296)       216.4  Rx     00000801  8  00 00 00 7F FF 80 08 00 
   297)       216.5  Rx     00000802  8  00 00 00 7F FF 80 08 00 
   298)       217.7  Rx     00002902  8  00 1C 00 00 00 00 24 00 
   299)       217.8  Rx     00002901  8  FC 63 00 00 00 00 26 00 
   300)       219.7  Rx     00002902  8  00 1C 00 00 FF FF 24 00 
   301)       219.8  Rx     00002901  8  FC 63 00 00 00 00 26 00 
   302)       219.9  Rx         0003  8  77 C2 D6 77 C2 D6 00 00 
   303)       220.1  Rx         0004  8  00 00 00 00 00 00 00 00 
   304)       220.2  Rx         0005  8  80 18 01 80 10 00 02 10 
   305)       220.4  Rx     00000801  8  00 00 00 7F FF 80 08 00 
   306)       220.5  Rx     00000802  8  00 00 00 7F FF 80 08 00 
   307)       221.7  Rx     00002902  8  00 1C 00 00 FF FE 25 00 
   308)       221.8  Rx     00002901  8  FC 63 00 00 FF FE 26 00 
   309)       223.7  Rx     00002902  8  00 1C 00 00 00 00 24 00 
   310)       223.8  Rx     00002901  8  FC 63 00 00 00 00 26 00 
   311)       223.9  Rx         0003  8  77 C2 D6 77 C2 D6 00 00 
   312)       224.1  Rx         0004  8  00 00 00 00 00 00 00 00 
   313)       224.2  Rx         0005  8  80 18 01 80 10 00 02 13 
   314)       224.3  Rx     00000801  8  00 00 00 7F FF 80 08 00 
   315)       224.5  Rx     00000802  8  00 00 00 7F FF 80 08 00 
   316)       225.7  Rx     00002902  8  00 1C 00 00 00 00 24 00 
   317)       225.8  Rx     00002901  8  FC 63 00 00 FF FF 26 00 
   318)       227.7  Rx     00002902  8  00 1C 00 00 FF FF 24 00 
   319)       227.8  Rx     00002901  8  FC 63 00 00 FF FF 26 00 
   320)       228.0  Rx         0003  8  77 C2 D6 77 C2 D6 00 00 
   321)       228.1  Rx         0004  8  00 00 00 00 00 00 00 00 
   322)       228.2  Rx         0005  8  80 18 01 80 10 00 02 15 
   323)       228.3  Rx     00000801  8  00 00 00 7F FF 80 08 00 
   324)       228.5  Rx     00000802  8  00 00 00 7F FF 80 08 00 
   325)       229.7  Rx     00002902  8  00 1C 00 00 00 00 25 00 
   326)       229.8  Rx     00002901  8  FC 63 00 00 FF FF 26 00 
   327)       231.7  Rx     00002902  8  00 1C 00 00 00 00 25 00 
   328)       231.8  Rx     00002901  8  FC 63 00 00 00 00 26 00 
   329)       231.9  Rx         0003  8  77 C2 D6 77 C2 D6 00 00 
   330)       232.1  Rx         0004  8  00 00 00 00 00 00 00 00 
   331)       232.2  Rx         0005  8  80 18 01 80 10 00 02 13 
   332)       232.4  Rx     00000801  8  00 00 00 7F FF 80 08 00 
   333)       232.5  Rx     00000802  8  00 00 00 7F FF 80 08 00 
   334)       233.7  Rx     00002902  8  00 1C 00 00 00 00 25 00 
   335)       233.8  Rx     00002901  8  FC 63 00 00 FF FE 26 00 
   336)       235.7  Rx     00002902  8  00 1C 00 00 FF FF 24 00 
   337)       235.8  Rx     00002901  8  FC 63 00 00 00 00 26 00 
   338)       235.9  Rx         0003  8  77 C2 D6 77 C2 D6 00 00 
   339)       236.1  Rx         0004  8  00 00 00 00 00 00 00 00 
   340)       236.2  Rx         0005  8  80 18 01 80 10 00 02 14 
   341)       236.4  Rx     00000801  8  00 00 00 7F FF 80 08 00 
   342)       236.5  Rx     00000802  8  00 00 00 7F FF 80 08 00 
   343)       237.7  Rx     00002902  8  00 1C 00 00 00 01 24 00 
   344)       237.8  Rx     00002901  8  FC 63 00 00 FF FC 26 00 
   345)       239.7  Rx     00002902  8  00 1C 00 00 FF FE 24 00 
   346)       239.8  Rx     00002901  8  FC 63 00 00 FF FE 26 00 
   347)       239.9  Rx         0003  8  77 C2 D6 77 C2 D6 00 00 
   348)       240.1  Rx         0004  8  00 00 00 00 00 00 00 00 
   349)       240.2  Rx         0005  8  80 18 01 80 10 00 02 15 
   350)       240.3  Rx     00000801  8  00 00 00 7F FF 80 08 00 
   351)       240.5  Rx     00000802  8  00 00 00 7F FF 80 08 00 
   352)       241.7  Rx     00002902  8  00 1C 00 00 00 00 25 00 
   353)       241.8  Rx     00002901  8  FC 63 00 00 00 00 26 00 
   354)       243.7  Rx     00002902  8  00 1C 00 00 00 00 24 00 
   355)       243.8  Rx     00002901  8  FC 63 00 00 FF FF 26 00 
   356)       244.0  Rx         0003  8  77 C2 D6 77 C2 D6 00 00 
   357)       244.1  Rx         0004  8  00 00 00 00 00 00 00 00 
   358)       244.2  Rx         0005  8  80 18 01 80 10 00 02 13 
   359)       244.3  Rx     00000801  8  00 00 00 7F FF 80 08 00 
   360)       244.5  Rx     00000802  8  00 00 00 7F FF 80 08 00 
   361)       245.7  Rx     00002902  8  00 1C 00 00 FF FE 24 00 
   362)       245.8  Rx     00002901  8  FC 63 00 00 FF FF 26 00 
   363)       247.7  Rx     00002902  8  00 1C 00 00 FF FF 24 00 
   364)       247.8  Rx     00002901  8  FC 63 00 00 FF FE 26 00 
   365)       247.9  Rx         0003  8  77 C2 D6 77 C2 D6 00 00 
