;$FILEVERSION=1.1
;$STARTTIME=45797.0237730093
;
;   Start time: 5/20/2025 00:34:13.988.0
;   Generated by PCAN-View v5.3.2.952
;
;   Message Number
;   |         Time Offset (ms)
;   |         |        Type
;   |         |        |        ID (hex)
;   |         |        |        |     Data Length
;   |         |        |        |     |   Data Bytes (hex) ...
;   |         |        |        |     |   |
;---+--   ----+----  --+--  ----+---  +  -+ -- -- -- -- -- -- --
     1)        44.1  Rx     00002901  8  FC 62 00 00 00 00 20 00 
     2)        44.3  Rx     00002902  8  00 19 00 00 FF FD 1F 00 
     3)        46.1  Rx     00002901  8  FC 62 00 00 00 00 20 00 
     4)        46.3  Rx     00002902  8  00 19 00 00 FF FF 1F 00 
     5)        46.4  Rx         0003  8  77 A2 D2 77 A2 D2 00 00 
     6)        46.6  Rx         0004  8  00 00 00 00 00 00 00 00 
     7)        46.7  Rx         0005  8  80 18 01 80 10 00 01 D0 
     8)        46.9  Rx     00000801  8  00 00 00 7F FF 80 08 00 
     9)        47.0  Rx     00000802  8  00 00 00 7F FF 80 08 00 
    10)        48.1  Rx     00002901  8  FC 62 00 00 00 00 20 00 
    11)        48.4  Rx     00002902  8  00 19 00 00 FF FE 1F 00 
    12)        50.1  Rx     00002901  8  FC 62 00 00 00 00 20 00 
    13)        50.3  Rx     00002902  8  00 19 00 00 FF FC 1F 00 
    14)        50.4  Rx         0003  8  77 A2 D2 77 A2 D2 00 00 
    15)        50.6  Rx         0004  8  00 00 00 00 00 00 00 00 
    16)        50.7  Rx         0005  8  80 18 01 80 10 00 01 D0 
    17)        50.9  Rx     00000801  8  00 00 00 7F FF 80 08 00 
    18)        51.0  Rx     00000802  8  00 00 00 7F FF 80 08 00 
    19)        52.1  Rx     00002901  8  FC 62 00 00 FF FF 20 00 
    20)        52.4  Rx     00002902  8  00 19 00 00 FF F9 1F 00 
    21)        54.1  Rx     00002901  8  FC 62 00 00 FF FE 20 00 
    22)        54.3  Rx     00002902  8  00 19 00 00 FF FA 1F 00 
    23)        54.5  Rx         0003  8  77 A2 D2 77 A2 D2 00 00 
    24)        54.6  Rx         0004  8  00 00 00 00 00 00 00 00 
    25)        54.7  Rx         0005  8  80 18 01 80 10 00 01 D1 
    26)        54.8  Rx     00000801  8  00 00 00 7F FF 80 08 00 
    27)        55.0  Rx     00000802  8  00 00 00 7F FF 80 08 00 
    28)        56.1  Rx     00002901  8  FC 62 00 00 00 00 20 00 
    29)        56.3  Rx     00002902  8  00 19 00 00 00 03 1F 00 
    30)        58.1  Rx     00002901  8  FC 62 00 00 00 00 20 00 
    31)        58.3  Rx     00002902  8  00 19 00 00 FF FD 1F 00 
    32)        58.5  Rx         0003  8  77 A2 D2 77 A2 D2 00 00 
    33)        58.6  Rx         0004  8  00 00 00 00 00 00 00 00 
    34)        58.7  Rx         0005  8  80 18 01 80 10 00 01 CD 
    35)        58.8  Rx     00000801  8  00 00 00 7F FF 80 08 00 
    36)        59.0  Rx     00000802  8  00 00 00 7F FF 80 08 00 
    37)        60.1  Rx     00002901  8  FC 62 00 00 FF FD 20 00 
    38)        60.3  Rx     00002902  8  00 19 00 00 FF F9 1F 00 
    39)        62.1  Rx     00002901  8  FC 62 00 00 00 00 20 00 
    40)        62.3  Rx     00002902  8  00 19 00 00 FF FA 1F 00 
    41)        62.4  Rx         0003  8  77 A2 D2 77 A2 D2 00 00 
    42)        62.6  Rx         0004  8  00 00 00 00 00 00 00 00 
    43)        62.7  Rx         0005  8  80 18 01 80 10 00 01 CF 
    44)        62.9  Rx     00000801  8  00 00 00 7F FF 80 08 00 
    45)        63.0  Rx     00000802  8  00 00 00 7F FF 80 08 00 
    46)        64.1  Rx     00002901  8  FC 62 00 00 00 00 20 00 
    47)        64.4  Rx     00002902  8  00 19 00 00 FF FF 1F 00 
    48)        66.1  Rx     00002901  8  FC 62 00 00 00 01 20 00 
    49)        66.3  Rx     00002902  8  00 19 00 00 00 00 1F 00 
    50)        66.4  Rx         0003  8  77 A2 D2 77 A2 D2 00 00 
    51)        66.6  Rx         0004  8  00 00 00 00 00 00 00 00 
    52)        66.7  Rx         0005  8  80 18 01 80 10 00 01 D0 
    53)        66.9  Rx     00000801  8  00 00 00 7F FF 80 08 00 
    54)        67.0  Rx     00000802  8  00 00 00 7F FF 80 08 00 
    55)        68.1  Rx     00002901  8  FC 62 00 00 FF FF 20 00 
    56)        68.4  Rx     00002902  8  00 19 00 00 FF FF 1F 00 
    57)        70.2  Rx     00002901  8  FC 62 00 00 FF FF 20 00 
    58)        70.3  Rx     00002902  8  00 19 00 00 FF FC 1F 00 
    59)        70.5  Rx         0003  8  77 A2 D2 77 A2 D2 00 00 
    60)        70.6  Rx         0004  8  00 00 00 00 00 00 00 00 
    61)        70.7  Rx         0005  8  80 18 01 80 10 00 01 CF 
    62)        70.8  Rx     00000801  8  00 00 00 7F FF 80 08 00 
    63)        71.0  Rx     00000802  8  00 00 00 7F FF 80 08 00 
    64)        72.1  Rx     00002901  8  FC 62 00 00 FF FE 20 00 
    65)        72.3  Rx     00002902  8  00 19 00 00 FF F7 1F 00 
    66)        74.1  Rx     00002901  8  FC 62 00 00 FF FE 20 00 
    67)        74.3  Rx     00002902  8  00 19 00 00 FF F8 1F 00 
    68)        74.5  Rx         0003  8  77 A2 D2 77 A2 D2 00 00 
    69)        74.6  Rx         0004  8  00 00 00 00 00 00 00 00 
    70)        74.7  Rx         0005  8  80 18 01 80 10 00 01 D1 
    71)        74.8  Rx     00000801  8  00 00 00 7F FF 80 08 00 
    72)        75.0  Rx     00000802  8  00 00 00 7F FF 80 08 00 
    73)        76.1  Rx     00002901  8  FC 62 00 00 00 01 20 00 
    74)        76.3  Rx     00002902  8  00 19 00 00 FF FB 1F 00 
    75)        78.1  Rx     00002901  8  FC 62 00 00 00 00 20 00 
    76)        78.3  Rx     00002902  8  00 19 00 00 FF FC 1F 00 
    77)        78.4  Rx         0003  8  77 A2 D2 77 A2 D2 00 00 
    78)        78.6  Rx         0004  8  00 00 00 00 00 00 00 00 
    79)        78.7  Rx         0005  8  80 18 01 80 10 00 01 CE 
    80)        78.9  Rx     00000801  8  00 00 00 7F FF 80 08 00 
    81)        79.0  Rx     00000802  8  00 00 00 7F FF 80 08 00 
    82)        80.1  Rx     00002901  8  FC 62 00 00 FF FF 20 00 
    83)        80.4  Rx     00002902  8  00 19 00 00 FF FC 1F 00 
    84)        82.1  Rx     00002901  8  FC 62 00 00 00 00 20 00 
    85)        82.4  Rx     00002902  8  00 19 00 00 FF FC 1F 00 
    86)        82.4  Rx         0003  8  77 A2 D2 77 A2 D2 00 00 
    87)        82.6  Rx         0004  8  00 00 00 00 00 00 00 00 
    88)        82.7  Rx         0005  8  80 18 01 80 10 00 01 CF 
    89)        82.9  Rx     00000801  8  00 00 00 7F FF 80 08 00 
    90)        83.0  Rx     00000802  8  00 00 00 7F FF 80 08 00 
    91)        84.1  Rx     00002901  8  FC 62 00 00 00 00 20 00 
    92)        84.3  Rx     00002902  8  00 19 00 00 FF FD 1F 00 
    93)        86.2  Rx     00002901  8  FC 62 00 00 00 00 20 00 
    94)        86.3  Rx     00002902  8  00 19 00 00 FF FF 1F 00 
    95)        86.5  Rx         0003  8  77 A2 D2 77 A2 D2 00 00 
    96)        86.6  Rx         0004  8  00 00 00 00 00 00 00 00 
    97)        86.7  Rx         0005  8  80 18 01 80 10 00 01 D2 
    98)        86.8  Rx     00000801  8  00 00 00 7F FF 80 08 00 
    99)        87.0  Rx     00000802  8  00 00 00 7F FF 80 08 00 
   100)        88.1  Rx     00002901  8  FC 62 00 00 00 00 20 00 
   101)        88.3  Rx     00002902  8  00 19 00 00 FF FD 1F 00 
   102)        90.1  Rx     00002901  8  FC 62 00 00 00 00 20 00 
   103)        90.3  Rx     00002902  8  00 19 00 00 FF FD 1F 00 
   104)        90.5  Rx         0003  8  77 A2 D2 77 A2 D2 00 00 
   105)        90.6  Rx         0004  8  00 00 00 00 00 00 00 00 
   106)        90.7  Rx         0005  8  80 18 01 80 10 00 01 D0 
   107)        90.8  Rx     00000801  8  00 00 00 7F FF 80 08 00 
   108)        91.0  Rx     00000802  8  00 00 00 7F FF 80 08 00 
   109)        92.1  Rx     00002901  8  FC 62 00 00 00 00 20 00 
   110)        92.3  Rx     00002902  8  00 19 00 00 FF FD 1F 00 
   111)        94.1  Rx     00002901  8  FC 62 00 00 00 00 20 00 
   112)        94.3  Rx     00002902  8  00 19 00 00 FF FF 1F 00 
   113)        94.5  Rx         0003  8  77 A2 D2 77 A2 D2 00 00 
   114)        94.6  Rx         0004  8  00 00 00 00 00 00 00 00 
   115)        94.7  Rx         0005  8  80 18 01 80 10 00 01 CE 
   116)        94.9  Rx     00000801  8  00 00 00 7F FF 80 08 00 
   117)        95.0  Rx     00000802  8  00 00 00 7F FF 80 08 00 
   118)        96.1  Rx     00002901  8  FC 62 00 00 FF FF 20 00 
   119)        96.4  Rx     00002902  8  00 19 00 00 FF FC 1F 00 
   120)        98.1  Rx     00002901  8  FC 62 00 00 00 00 20 00 
   121)        98.4  Rx     00002902  8  00 19 00 00 FF FD 1F 00 
   122)        98.4  Rx         0003  8  77 A2 D2 77 A2 D2 00 00 
   123)        98.6  Rx         0004  8  00 00 00 00 00 00 00 00 
   124)        98.7  Rx         0005  8  80 18 01 80 10 00 01 CE 
   125)        98.8  Rx     00000801  8  00 00 00 7F FF 80 08 00 
   126)        99.0  Rx     00000802  8  00 00 00 7F FF 80 08 00 
   127)       100.1  Rx     00002901  8  FC 62 00 00 00 00 20 00 
   128)       100.3  Rx     00002902  8  00 19 00 00 FF FA 1F 00 
   129)       102.2  Rx     00002901  8  FC 62 00 00 FF FF 20 00 
   130)       102.3  Rx     00002902  8  00 19 00 00 FF FC 1F 00 
   131)       102.5  Rx         0003  8  77 A2 D2 77 A2 D2 00 00 
   132)       102.6  Rx         0004  8  00 00 00 00 00 00 00 00 
   133)       102.7  Rx         0005  8  80 18 01 80 10 00 01 CF 
   134)       102.8  Rx     00000801  8  00 00 00 7F FF 80 08 00 
   135)       103.0  Rx     00000802  8  00 00 00 7F FF 80 08 00 
   136)       104.2  Rx     00002901  8  FC 62 00 00 FF FF 20 00 
   137)       104.3  Rx     00002902  8  00 19 00 00 FF F9 1F 00 
   138)       106.1  Rx     00002901  8  FC 62 00 00 00 00 20 00 
   139)       106.3  Rx     00002902  8  00 19 00 00 00 00 1F 00 
   140)       106.5  Rx         0003  8  77 A2 D2 77 A2 D2 00 00 
   141)       106.6  Rx         0004  8  00 00 00 00 00 00 00 00 
   142)       106.7  Rx         0005  8  80 18 01 80 10 00 01 D1 
   143)       106.8  Rx     00000801  8  00 00 00 7F FF 80 08 00 
   144)       107.0  Rx     00000802  8  00 00 00 7F FF 80 08 00 
   145)       108.1  Rx     00002901  8  FC 62 00 00 FF FF 20 00 
   146)       108.3  Rx     00002902  8  00 19 00 00 FF FB 1F 00 
   147)       110.1  Rx     00002901  8  FC 62 00 00 00 00 20 00 
   148)       110.3  Rx     00002902  8  00 19 00 00 FF FC 1F 00 
   149)       110.5  Rx         0003  8  77 A2 D2 77 A2 D2 00 00 
   150)       110.6  Rx         0004  8  00 00 00 00 00 00 00 00 
   151)       110.7  Rx         0005  8  80 18 01 80 10 00 01 CF 
   152)       110.9  Rx     00000801  8  00 00 00 7F FF 80 08 00 
   153)       111.0  Rx     00000802  8  00 00 00 7F FF 80 08 00 
   154)       112.1  Rx     00002901  8  FC 62 00 00 FF FD 20 00 
   155)       112.3  Rx     00002902  8  00 19 00 00 FF F9 1F 00 
   156)       114.1  Rx     00002901  8  FC 62 00 00 00 00 20 00 
   157)       114.4  Rx     00002902  8  00 19 00 00 00 00 1F 00 
   158)       114.4  Rx         0003  8  77 A2 D2 77 A2 D2 00 00 
   159)       114.6  Rx         0004  8  00 00 00 00 00 00 00 00 
   160)       114.7  Rx         0005  8  80 18 01 80 10 00 01 CF 
   161)       114.9  Rx     00000801  8  00 00 00 7F FF 80 08 00 
   162)       115.0  Rx     00000802  8  00 00 00 7F FF 80 08 00 
   163)       116.1  Rx     00002901  8  FC 62 00 00 00 00 20 00 
   164)       116.3  Rx     00002902  8  00 19 00 00 FF FB 1F 00 
   165)       118.2  Rx     00002901  8  FC 62 00 00 00 00 20 00 
   166)       118.3  Rx     00002902  8  00 19 00 00 FF FC 1F 00 
   167)       118.5  Rx         0003  8  77 A2 D2 77 A2 D2 00 00 
   168)       118.6  Rx         0004  8  00 00 00 00 00 00 00 00 
   169)       118.7  Rx         0005  8  80 18 01 80 10 00 01 CE 
   170)       118.8  Rx     00000801  8  00 00 00 7F FF 80 08 00 
   171)       119.0  Rx     00000802  8  00 00 00 7F FF 80 08 00 
   172)       120.2  Rx     00002901  8  FC 62 00 00 FF FF 20 00 
   173)       120.3  Rx     00002902  8  00 19 00 00 FF FC 1F 00 
   174)       122.1  Rx     00002901  8  FC 62 00 00 FF FF 20 00 
   175)       122.3  Rx     00002902  8  00 19 00 00 FF FF 1F 00 
   176)       122.5  Rx         0003  8  77 A2 D2 77 A2 D2 00 00 
   177)       122.6  Rx         0004  8  00 00 00 00 00 00 00 00 
   178)       122.7  Rx         0005  8  80 18 01 80 10 00 01 CF 
   179)       122.8  Rx     00000801  8  00 00 00 7F FF 80 08 00 
   180)       123.0  Rx     00000802  8  00 00 00 7F FF 80 08 00 
   181)       124.1  Rx     00002901  8  FC 62 00 00 FF FF 20 00 
   182)       124.3  Rx     00002902  8  00 19 00 00 FF FB 1F 00 
   183)       126.1  Rx     00002901  8  FC 62 00 00 00 00 20 00 
   184)       126.3  Rx     00002902  8  00 19 00 00 FF FC 1F 00 
   185)       126.4  Rx         0003  8  77 A2 D2 77 A2 D2 00 00 
   186)       126.6  Rx         0004  8  00 00 00 00 00 00 00 00 
   187)       126.7  Rx         0005  8  80 18 01 80 10 00 01 D0 
   188)       126.9  Rx     00000801  8  00 00 00 7F FF 80 08 00 
   189)       127.0  Rx     00000802  8  00 00 00 7F FF 80 08 00 
   190)       128.1  Rx     00002901  8  FC 62 00 00 00 00 20 00 
   191)       128.4  Rx     00002902  8  00 19 00 00 FF FC 1F 00 
   192)       130.1  Rx     00002901  8  FC 62 00 00 00 00 20 00 
   193)       130.4  Rx     00002902  8  00 19 00 00 FF FE 1F 00 
   194)       130.4  Rx         0003  8  77 A2 D2 77 A2 D2 00 00 
   195)       130.6  Rx         0004  8  00 00 00 00 00 00 00 00 
   196)       130.7  Rx         0005  8  80 18 01 80 10 00 01 D0 
   197)       130.9  Rx     00000801  8  00 00 00 7F FF 80 08 00 
   198)       131.0  Rx     00000802  8  00 00 00 7F FF 80 08 00 
   199)       132.1  Rx     00002901  8  FC 62 00 00 FF FF 20 00 
   200)       132.4  Rx     00002902  8  00 19 00 00 FF F6 1F 00 
   201)       134.1  Rx     00002901  8  FC 62 00 00 FF FF 20 00 
   202)       134.3  Rx     00002902  8  00 19 00 00 FF FC 1F 00 
   203)       134.5  Rx         0003  8  77 A2 D2 77 A2 D2 00 00 
   204)       134.6  Rx         0004  8  00 00 00 00 00 00 00 00 
   205)       134.7  Rx         0005  8  80 18 01 80 10 00 01 CE 
   206)       134.9  Rx     00000801  8  00 00 00 7F FF 80 08 00 
   207)       135.0  Rx     00000802  8  00 00 00 7F FF 80 08 00 
   208)       136.1  Rx     00002901  8  FC 62 00 00 00 01 20 00 
   209)       136.3  Rx     00002902  8  00 19 00 00 FF FC 1F 00 
   210)       138.1  Rx     00002901  8  FC 62 00 00 FF FF 20 00 
   211)       138.3  Rx     00002902  8  00 19 00 00 FF FE 1F 00 
   212)       138.5  Rx         0003  8  77 A2 D2 77 A2 D2 00 00 
   213)       138.6  Rx         0004  8  00 00 00 00 00 00 00 00 
   214)       138.7  Rx         0005  8  80 18 01 80 10 00 01 D0 
   215)       138.8  Rx     00000801  8  00 00 00 7F FF 80 08 00 
   216)       139.0  Rx     00000802  8  00 00 00 7F FF 80 08 00 
   217)       140.1  Rx     00002901  8  FC 62 00 00 00 00 20 00 
   218)       140.3  Rx     00002902  8  00 19 00 00 FF FE 1F 00 
   219)       142.1  Rx     00002901  8  FC 62 00 00 00 00 20 00 
   220)       142.3  Rx     00002902  8  00 19 00 00 00 00 1F 00 
   221)       142.4  Rx         0003  8  77 A2 D2 77 A2 D2 00 00 
   222)       142.6  Rx         0004  8  00 00 00 00 00 00 00 00 
   223)       142.7  Rx         0005  8  80 18 01 80 10 00 01 D0 
   224)       142.9  Rx     00000801  8  00 00 00 7F FF 80 08 00 
   225)       143.0  Rx     00000802  8  00 00 00 7F FF 80 08 00 
   226)       144.1  Rx     00002901  8  FC 62 00 00 00 00 20 00 
   227)       144.4  Rx     00002902  8  00 19 00 00 FF FB 1F 00 
   228)       146.1  Rx     00002901  8  FC 62 00 00 00 00 20 00 
   229)       146.3  Rx     00002902  8  00 19 00 00 FF FE 1F 00 
   230)       146.4  Rx         0003  8  77 A2 D2 77 A2 D2 00 00 
   231)       146.6  Rx         0004  8  00 00 00 00 00 00 00 00 
   232)       146.7  Rx         0005  8  80 18 01 80 10 00 01 CE 
   233)       146.9  Rx     00000801  8  00 00 00 7F FF 80 08 00 
   234)       147.0  Rx     00000802  8  00 00 00 7F FF 80 08 00 
   235)       148.1  Rx     00002901  8  FC 62 00 00 00 00 20 00 
   236)       148.3  Rx     00002902  8  00 19 00 00 FF FE 1F 00 
   237)       150.2  Rx     00002901  8  FC 62 00 00 00 00 20 00 
   238)       150.3  Rx     00002902  8  00 19 00 00 FF FD 1F 00 
   239)       150.5  Rx         0003  8  77 A2 D2 77 A2 D2 00 00 
   240)       150.6  Rx         0004  8  00 00 00 00 00 00 00 00 
   241)       150.7  Rx         0005  8  80 18 01 80 10 00 01 CE 
   242)       150.8  Rx     00000801  8  00 00 00 7F FF 80 08 00 
   243)       151.0  Rx     00000802  8  00 00 00 7F FF 80 08 00 
   244)       152.1  Rx     00002901  8  FC 62 00 00 00 00 20 00 
   245)       152.3  Rx     00002902  8  00 19 00 00 FF F9 1F 00 
   246)       154.1  Rx     00002901  8  FC 62 00 00 00 00 20 00 
   247)       154.3  Rx     00002902  8  00 19 00 00 FF FE 1F 00 
   248)       154.5  Rx         0003  8  77 A2 D2 77 A2 D2 00 00 
   249)       154.6  Rx         0004  8  00 00 00 00 00 00 00 00 
   250)       154.7  Rx         0005  8  80 18 01 80 10 00 01 CD 
   251)       154.8  Rx     00000801  8  00 00 00 7F FF 80 08 00 
   252)       155.0  Rx     00000802  8  00 00 00 7F FF 80 08 00 
   253)       156.1  Rx     00002901  8  FC 62 00 00 00 00 20 00 
   254)       156.3  Rx     00002902  8  00 19 00 00 FF FD 1F 00 
   255)       158.1  Rx     00002901  8  FC 62 00 00 FF FF 20 00 
   256)       158.3  Rx     00002902  8  00 19 00 00 FF FA 1F 00 
   257)       158.5  Rx         0003  8  77 A2 D2 77 A2 D2 00 00 
   258)       158.6  Rx         0004  8  00 00 00 00 00 00 00 00 
   259)       158.7  Rx         0005  8  80 18 01 80 10 00 01 CC 
   260)       158.9  Rx     00000801  8  00 00 00 7F FF 80 08 00 
   261)       159.0  Rx     00000802  8  00 00 00 7F FF 80 08 00 
   262)       160.1  Rx     00002901  8  FC 62 00 00 00 00 20 00 
   263)       160.4  Rx     00002902  8  00 19 00 00 FF FE 1F 00 
   264)       162.1  Rx     00002901  8  FC 62 00 00 FF FF 20 00 
   265)       162.4  Rx     00002902  8  00 19 00 00 FF F9 1F 00 
   266)       162.4  Rx         0003  8  77 A2 D2 77 A2 D2 00 00 
   267)       162.6  Rx         0004  8  00 00 00 00 00 00 00 00 
   268)       162.7  Rx         0005  8  80 18 01 80 10 00 01 CF 
   269)       162.9  Rx     00000801  8  00 00 00 7F FF 80 08 00 
   270)       163.0  Rx     00000802  8  00 00 00 7F FF 80 08 00 
   271)       164.1  Rx     00002901  8  FC 62 00 00 FF FE 20 00 
   272)       164.3  Rx     00002902  8  00 19 00 00 FF FD 1F 00 
   273)       166.2  Rx     00002901  8  FC 62 00 00 FF FF 20 00 
   274)       166.3  Rx     00002902  8  00 19 00 00 FF FC 1F 00 
   275)       166.5  Rx         0003  8  77 A2 D2 77 A2 D2 00 00 
   276)       166.6  Rx         0004  8  00 00 00 00 00 00 00 00 
   277)       166.7  Rx         0005  8  80 18 01 80 10 00 01 CF 
   278)       166.8  Rx     00000801  8  00 00 00 7F FF 80 08 00 
   279)       167.0  Rx     00000802  8  00 00 00 7F FF 80 08 00 
   280)       168.2  Rx     00002901  8  FC 62 00 00 00 00 20 00 
   281)       168.3  Rx     00002902  8  00 19 00 00 FF FB 1F 00 
   282)       170.1  Rx     00002901  8  FC 62 00 00 FF FF 20 00 
   283)       170.3  Rx     00002902  8  00 19 00 00 FF FD 1F 00 
   284)       170.5  Rx         0003  8  77 A2 D2 77 A2 D2 00 00 
   285)       170.6  Rx         0004  8  00 00 00 00 00 00 00 00 
   286)       170.7  Rx         0005  8  80 18 01 80 10 00 01 CE 
   287)       170.8  Rx     00000801  8  00 00 00 7F FF 80 08 00 
   288)       171.0  Rx     00000802  8  00 00 00 7F FF 80 08 00 
   289)       172.1  Rx     00002901  8  FC 62 00 00 00 00 20 00 
   290)       172.3  Rx     00002902  8  00 19 00 00 FF FB 1F 00 
   291)       174.1  Rx     00002901  8  FC 62 00 00 FF FF 20 00 
   292)       174.3  Rx     00002902  8  00 19 00 00 FF F9 1F 00 
   293)       174.5  Rx         0003  8  77 A2 D2 77 A2 D2 00 00 
   294)       174.6  Rx         0004  8  00 00 00 00 00 00 00 00 
   295)       174.7  Rx         0005  8  80 18 01 80 10 00 01 CF 
   296)       174.9  Rx     00000801  8  00 00 00 7F FF 80 08 00 
   297)       175.0  Rx     00000802  8  00 00 00 7F FF 80 08 00 
   298)       176.1  Rx     00002901  8  FC 62 00 00 00 01 20 00 
   299)       176.3  Rx     00002902  8  00 19 00 00 FF FA 1F 00 
   300)       178.1  Rx     00002901  8  FC 62 00 00 00 00 20 00 
   301)       178.4  Rx     00002902  8  00 19 00 00 FF FA 1F 00 
   302)       178.4  Rx         0003  8  77 A2 D2 77 A2 D2 00 00 
   303)       178.6  Rx         0004  8  00 00 00 00 00 00 00 00 
   304)       178.7  Rx         0005  8  80 18 01 80 10 00 01 CF 
   305)       178.9  Rx     00000801  8  00 00 00 7F FF 80 08 00 
   306)       179.0  Rx     00000802  8  00 00 00 7F FF 80 08 00 
   307)       180.1  Rx     00002901  8  FC 62 00 00 FF FD 20 00 
   308)       180.3  Rx     00002902  8  00 19 00 00 FF F9 1F 00 
   309)       182.2  Rx     00002901  8  FC 62 00 00 FF FF 20 00 
   310)       182.3  Rx     00002902  8  00 19 00 00 FF FC 1F 00 
   311)       182.5  Rx         0003  8  77 A2 D2 77 A2 D2 00 00 
   312)       182.6  Rx         0004  8  00 00 00 00 00 00 00 00 
   313)       182.7  Rx         0005  8  80 18 01 80 10 00 01 CC 
   314)       182.9  Rx     00000801  8  00 00 00 7F FF 80 08 00 
   315)       183.0  Rx     00000802  8  00 00 00 7F FF 80 08 00 
   316)       184.2  Rx     00002901  8  FC 62 00 00 00 00 20 00 
   317)       184.3  Rx     00002902  8  00 19 00 00 00 00 1F 00 
   318)       186.1  Rx     00002901  8  FC 62 00 00 00 00 20 00 
   319)       186.3  Rx     00002902  8  00 19 00 00 FF FF 1F 00 
   320)       186.5  Rx         0003  8  77 A2 D2 77 A2 D2 00 00 
   321)       186.6  Rx         0004  8  00 00 00 00 00 00 00 00 
   322)       186.7  Rx         0005  8  80 18 01 80 10 00 01 D1 
   323)       186.8  Rx     00000801  8  00 00 00 7F FF 80 08 00 
   324)       187.0  Rx     00000802  8  00 00 00 7F FF 80 08 00 
   325)       188.1  Rx     00002901  8  FC 62 00 00 FF FF 20 00 
   326)       188.3  Rx     00002902  8  00 19 00 00 FF FA 1F 00 
   327)       190.1  Rx     00002901  8  FC 62 00 00 FF FF 20 00 
   328)       190.3  Rx     00002902  8  00 19 00 00 FF FB 1F 00 
   329)       190.4  Rx         0003  8  77 A2 D2 77 A2 D2 00 00 
   330)       190.6  Rx         0004  8  00 00 00 00 00 00 00 00 
   331)       190.7  Rx         0005  8  80 18 01 80 10 00 01 CE 
   332)       190.9  Rx     00000801  8  00 00 00 7F FF 80 08 00 
   333)       191.0  Rx     00000802  8  00 00 00 7F FF 80 08 00 
   334)       192.1  Rx     00002901  8  FC 62 00 00 00 00 20 00 
   335)       192.4  Rx     00002902  8  00 19 00 00 FF FD 1F 00 
   336)       194.1  Rx     00002901  8  FC 62 00 00 00 00 20 00 
   337)       194.4  Rx     00002902  8  00 19 00 00 FF FB 1F 00 
   338)       194.4  Rx         0003  8  77 A2 D2 77 A2 D2 00 00 
   339)       194.6  Rx         0004  8  00 00 00 00 00 00 00 00 
   340)       194.7  Rx         0005  8  80 18 01 80 10 00 01 CD 
   341)       194.9  Rx     00000801  8  00 00 00 7F FF 80 08 00 
   342)       195.0  Rx     00000802  8  00 00 00 7F FF 80 08 00 
   343)       196.1  Rx     00002901  8  FC 62 00 00 00 01 20 00 
   344)       196.4  Rx     00002902  8  00 19 00 00 FF FD 1F 00 
   345)       198.2  Rx     00002901  8  FC 62 00 00 00 00 20 00 
   346)       198.3  Rx     00002902  8  00 19 00 00 FF FB 1F 00 
   347)       198.5  Rx         0003  8  77 A2 D2 77 A2 D2 00 00 
   348)       198.6  Rx         0004  8  00 00 00 00 00 00 00 00 
   349)       198.7  Rx         0005  8  80 18 01 80 10 00 01 CA 
   350)       198.9  Rx     00000801  8  00 00 00 7F FF 80 08 00 
   351)       199.0  Rx     00000802  8  00 00 00 7F FF 80 08 00 
   352)       200.1  Rx     00002901  8  FC 62 00 00 00 00 20 00 
   353)       200.3  Rx     00002902  8  00 19 00 00 00 00 1F 00 
   354)       202.2  Rx     00002901  8  FC 62 00 00 00 00 20 00 
   355)       202.3  Rx     00002902  8  00 19 00 00 FF FE 1F 00 
   356)       202.5  Rx         0003  8  77 A2 D2 77 A2 D2 00 00 
   357)       202.6  Rx         0004  8  00 00 00 00 00 00 00 00 
   358)       202.7  Rx         0005  8  80 18 01 80 10 00 01 C9 
   359)       202.8  Rx     00000801  8  00 00 00 7F FF 80 08 00 
   360)       203.0  Rx     00000802  8  00 00 00 7F FF 80 08 00 
   361)       204.1  Rx     00002901  8  FC 62 00 00 00 00 20 00 
   362)       204.3  Rx     00002902  8  00 19 00 00 FF FC 1F 00 
   363)       206.1  Rx     00002901  8  FC 62 00 00 FF FF 20 00 
   364)       206.3  Rx     00002902  8  00 19 00 00 00 00 1F 00 
   365)       206.5  Rx         0003  8  77 A2 D2 77 A2 D2 00 00 
