;$FILEVERSION=1.1
;$STARTTIME=45797.0244673611
;
;   Start time: 5/20/2025 00:35:13.980.0
;   Generated by PCAN-View v5.3.2.952
;
;   Message Number
;   |         Time Offset (ms)
;   |         |        Type
;   |         |        |        ID (hex)
;   |         |        |        |     Data Length
;   |         |        |        |     |   Data Bytes (hex) ...
;   |         |        |        |     |   |
;---+--   ----+----  --+--  ----+---  +  -+ -- -- -- -- -- -- --
     1)        69.5  Rx     00002901  8  FC 62 00 00 00 01 23 00 
     2)        69.7  Rx     00002902  8  00 18 00 00 FF FB 22 00 
     3)        71.5  Rx     00002901  8  FC 62 00 00 00 00 23 00 
     4)        71.7  Rx     00002902  8  00 18 00 00 FF FC 22 00 
     5)        71.8  Rx         0003  8  77 A2 D0 77 A2 D0 00 00 
     6)        72.0  Rx         0004  8  00 00 00 00 00 00 00 00 
     7)        72.1  Rx         0005  8  80 18 01 80 10 00 01 73 
     8)        72.2  Rx     00000801  8  00 00 00 7F FF 80 08 00 
     9)        72.3  Rx     00000802  8  00 00 00 7F FF 80 08 00 
    10)        73.5  Rx     00002901  8  FC 62 00 00 FF FF 23 00 
    11)        73.7  Rx     00002902  8  00 18 00 00 FF FF 22 00 
    12)        75.5  Rx     00002901  8  FC 62 00 00 00 00 23 00 
    13)        75.7  Rx     00002902  8  00 18 00 00 FF FE 22 00 
    14)        75.8  Rx         0003  8  77 A2 D0 77 A2 D0 00 00 
    15)        76.0  Rx         0004  8  00 00 00 00 00 00 00 00 
    16)        76.1  Rx         0005  8  80 18 01 80 10 00 01 73 
    17)        76.2  Rx     00000801  8  00 00 00 7F FF 80 08 00 
    18)        76.3  Rx     00000802  8  00 00 00 7F FF 80 08 00 
    19)        77.5  Rx     00002901  8  FC 62 00 00 00 00 23 00 
    20)        77.7  Rx     00002902  8  00 18 00 00 00 00 22 00 
    21)        79.5  Rx     00002901  8  FC 62 00 00 FF FF 23 00 
    22)        79.7  Rx     00002902  8  00 18 00 00 FF F9 22 00 
    23)        79.8  Rx         0003  8  77 A2 D0 77 A2 D0 00 00 
    24)        79.9  Rx         0004  8  00 00 00 00 00 00 00 00 
    25)        80.1  Rx         0005  8  80 18 01 80 10 00 01 73 
    26)        80.2  Rx     00000801  8  00 00 00 7F FF 80 08 00 
    27)        80.4  Rx     00000802  8  00 00 00 7F FF 80 08 00 
    28)        81.5  Rx     00002901  8  FC 62 00 00 FF FF 23 00 
    29)        81.7  Rx     00002902  8  00 18 00 00 FF FE 22 00 
    30)        83.5  Rx     00002901  8  FC 62 00 00 00 00 23 00 
    31)        83.6  Rx     00002902  8  00 18 00 00 FF F9 22 00 
    32)        83.8  Rx         0003  8  77 A2 D0 77 A2 D0 00 00 
    33)        83.9  Rx         0004  8  00 00 00 00 00 00 00 00 
    34)        84.1  Rx         0005  8  80 18 01 80 10 00 01 73 
    35)        84.2  Rx     00000801  8  00 00 00 7F FF 80 08 00 
    36)        84.4  Rx     00000802  8  00 00 00 7F FF 80 08 00 
    37)        85.5  Rx     00002901  8  FC 62 00 00 FF FF 23 00 
    38)        85.7  Rx     00002902  8  00 18 00 00 FF FA 22 00 
    39)        87.5  Rx     00002901  8  FC 62 00 00 FF FE 23 00 
    40)        87.7  Rx     00002902  8  00 18 00 00 FF FB 22 00 
    41)        87.8  Rx         0003  8  77 A2 D0 77 A2 D0 00 00 
    42)        88.0  Rx         0004  8  00 00 00 00 00 00 00 00 
    43)        88.1  Rx         0005  8  80 18 01 80 10 00 01 73 
    44)        88.2  Rx     00000801  8  00 00 00 7F FF 80 08 00 
    45)        88.3  Rx     00000802  8  00 00 00 7F FF 80 08 00 
    46)        89.4  Rx     00002901  8  FC 62 00 00 FF FE 23 00 
    47)        89.7  Rx     00002902  8  00 18 00 00 FF FD 22 00 
    48)        91.5  Rx     00002901  8  FC 62 00 00 FF FF 23 00 
    49)        91.7  Rx     00002902  8  00 18 00 00 FF FF 22 00 
    50)        91.8  Rx         0003  8  77 A2 D0 77 A2 D0 00 00 
    51)        91.9  Rx         0004  8  00 00 00 00 00 00 00 00 
    52)        92.1  Rx         0005  8  80 18 01 80 10 00 01 73 
    53)        92.2  Rx     00000801  8  00 00 00 7F FF 80 08 00 
    54)        92.3  Rx     00000802  8  00 00 00 7F FF 80 08 00 
    55)        93.5  Rx     00002901  8  FC 62 00 00 00 00 23 00 
    56)        93.7  Rx     00002902  8  00 18 00 00 FF FE 22 00 
    57)        95.5  Rx     00002901  8  FC 62 00 00 FF FE 23 00 
    58)        95.7  Rx     00002902  8  00 18 00 00 FF FF 22 00 
    59)        95.8  Rx         0003  8  77 A2 D0 77 A2 D0 00 00 
    60)        95.9  Rx         0004  8  00 00 00 00 00 00 00 00 
    61)        96.1  Rx         0005  8  80 18 01 80 10 00 01 73 
    62)        96.2  Rx     00000801  8  00 00 00 7F FF 80 08 00 
    63)        96.4  Rx     00000802  8  00 00 00 7F FF 80 08 00 
    64)        97.5  Rx     00002901  8  FC 62 00 00 00 00 23 00 
    65)        97.6  Rx     00002902  8  00 18 00 00 FF FA 22 00 
    66)        99.5  Rx     00002901  8  FC 62 00 00 FF FF 23 00 
    67)        99.6  Rx     00002902  8  00 18 00 00 FF FC 22 00 
    68)        99.8  Rx         0003  8  77 A2 D0 77 A2 D0 00 00 
    69)        99.9  Rx         0004  8  00 00 00 00 00 00 00 00 
    70)       100.1  Rx         0005  8  80 18 01 80 10 00 01 73 
    71)       100.2  Rx     00000801  8  00 00 00 7F FF 80 08 00 
    72)       100.3  Rx     00000802  8  00 00 00 7F FF 80 08 00 
    73)       101.5  Rx     00002901  8  FC 62 00 00 00 00 23 00 
    74)       101.7  Rx     00002902  8  00 18 00 00 FF FC 22 00 
    75)       103.4  Rx     00002901  8  FC 62 00 00 FF FF 23 00 
    76)       103.7  Rx     00002902  8  00 18 00 00 FF FB 22 00 
    77)       103.8  Rx         0003  8  77 A2 D0 77 A2 D0 00 00 
    78)       104.0  Rx         0004  8  00 00 00 00 00 00 00 00 
    79)       104.0  Rx         0005  8  80 18 01 80 10 00 01 73 
    80)       104.2  Rx     00000801  8  00 00 00 7F FF 80 08 00 
    81)       104.3  Rx     00000802  8  00 00 00 7F FF 80 08 00 
    82)       105.5  Rx     00002901  8  FC 62 00 00 FF FF 23 00 
    83)       105.7  Rx     00002902  8  00 18 00 00 00 01 22 00 
    84)       107.5  Rx     00002901  8  FC 62 00 00 00 00 23 00 
    85)       107.7  Rx     00002902  8  00 18 00 00 FF FF 22 00 
    86)       107.8  Rx         0003  8  77 A2 D0 77 A2 D0 00 00 
    87)       108.0  Rx         0004  8  00 00 00 00 00 00 00 00 
    88)       108.0  Rx         0005  8  80 18 01 80 10 00 01 73 
    89)       108.2  Rx     00000801  8  00 00 00 7F FF 80 08 00 
    90)       108.3  Rx     00000802  8  00 00 00 7F FF 80 08 00 
    91)       109.5  Rx     00002901  8  FC 62 00 00 FF FF 23 00 
    92)       109.7  Rx     00002902  8  00 18 00 00 FF FB 22 00 
    93)       111.5  Rx     00002901  8  FC 62 00 00 FF FF 23 00 
    94)       111.7  Rx     00002902  8  00 18 00 00 FF FB 22 00 
    95)       111.8  Rx         0003  8  77 A2 D0 77 A2 D0 00 00 
    96)       111.9  Rx         0004  8  00 00 00 00 00 00 00 00 
    97)       112.1  Rx         0005  8  80 18 01 80 10 00 01 73 
    98)       112.2  Rx     00000801  8  00 00 00 7F FF 80 08 00 
    99)       112.4  Rx     00000802  8  00 00 00 7F FF 80 08 00 
   100)       113.5  Rx     00002901  8  FC 62 00 00 00 00 23 00 
   101)       113.6  Rx     00002902  8  00 18 00 00 FF FC 22 00 
   102)       115.5  Rx     00002901  8  FC 62 00 00 FF FF 23 00 
   103)       115.7  Rx     00002902  8  00 18 00 00 FF FC 22 00 
   104)       115.8  Rx         0003  8  77 A2 D0 77 A2 D0 00 00 
   105)       115.9  Rx         0004  8  00 00 00 00 00 00 00 00 
   106)       116.1  Rx         0005  8  80 18 01 80 10 00 01 73 
   107)       116.2  Rx     00000801  8  00 00 00 7F FF 80 08 00 
   108)       116.4  Rx     00000802  8  00 00 00 7F FF 80 08 00 
   109)       117.5  Rx     00002901  8  FC 62 00 00 00 01 23 00 
   110)       117.6  Rx     00002902  8  00 18 00 00 FF F9 22 00 
   111)       119.5  Rx     00002901  8  FC 62 00 00 00 00 23 00 
   112)       119.7  Rx     00002902  8  00 18 00 00 FF FD 22 00 
   113)       119.8  Rx         0003  8  77 A2 D0 77 A2 D0 00 00 
   114)       119.9  Rx         0004  8  00 00 00 00 00 00 00 00 
   115)       120.0  Rx         0005  8  80 18 01 80 10 00 01 73 
   116)       120.2  Rx     00000801  8  00 00 00 7F FF 80 08 00 
   117)       120.3  Rx     00000802  8  00 00 00 7F FF 80 08 00 
   118)       121.4  Rx     00002901  8  FC 62 00 00 00 01 23 00 
   119)       121.7  Rx     00002902  8  00 18 00 00 FF FC 22 00 
   120)       123.5  Rx     00002901  8  FC 62 00 00 00 00 23 00 
   121)       123.7  Rx     00002902  8  00 18 00 00 FF FF 22 00 
   122)       123.8  Rx         0003  8  77 A2 D0 77 A2 D0 00 00 
   123)       123.9  Rx         0004  8  00 00 00 00 00 00 00 00 
   124)       124.0  Rx         0005  8  80 18 01 80 10 00 01 73 
   125)       124.2  Rx     00000801  8  00 00 00 7F FF 80 08 00 
   126)       124.3  Rx     00000802  8  00 00 00 7F FF 80 08 00 
   127)       125.5  Rx     00002901  8  FC 62 00 00 00 00 23 00 
   128)       125.7  Rx     00002902  8  00 18 00 00 FF FA 22 00 
   129)       127.5  Rx     00002901  8  FC 62 00 00 00 00 23 00 
   130)       127.7  Rx     00002902  8  00 18 00 00 FF FC 22 00 
   131)       127.8  Rx         0003  8  77 A2 D0 77 A2 D0 00 00 
   132)       127.9  Rx         0004  8  00 00 00 00 00 00 00 00 
   133)       128.1  Rx         0005  8  80 18 01 80 10 00 01 73 
   134)       128.2  Rx     00000801  8  00 00 00 7F FF 80 08 00 
   135)       128.4  Rx     00000802  8  00 00 00 7F FF 80 08 00 
   136)       129.5  Rx     00002901  8  FC 62 00 00 00 00 23 00 
   137)       129.6  Rx     00002902  8  00 18 00 00 FF FB 22 00 
   138)       131.5  Rx     00002901  8  FC 62 00 00 FF FE 23 00 
   139)       131.7  Rx     00002902  8  00 18 00 00 00 00 22 00 
   140)       131.8  Rx         0003  8  77 A2 D0 77 A2 D0 00 00 
   141)       131.9  Rx         0004  8  00 00 00 00 00 00 00 00 
   142)       132.1  Rx         0005  8  80 18 01 80 10 00 01 73 
   143)       132.2  Rx     00000801  8  00 00 00 7F FF 80 08 00 
   144)       132.4  Rx     00000802  8  00 00 00 7F FF 80 08 00 
   145)       133.5  Rx     00002901  8  FC 62 00 00 00 00 23 00 
   146)       133.6  Rx     00002902  8  00 18 00 00 FF FB 22 00 
   147)       135.5  Rx     00002901  8  FC 62 00 00 00 00 23 00 
   148)       135.7  Rx     00002902  8  00 18 00 00 FF FB 22 00 
   149)       135.8  Rx         0003  8  77 A2 D0 77 A2 D0 00 00 
   150)       135.9  Rx         0004  8  00 00 00 00 00 00 00 00 
   151)       136.0  Rx         0005  8  80 18 01 80 10 00 01 72 
   152)       136.2  Rx     00000801  8  00 00 00 7F FF 80 08 00 
   153)       136.3  Rx     00000802  8  00 00 00 7F FF 80 08 00 
   154)       137.4  Rx     00002901  8  FC 62 00 00 00 00 23 00 
   155)       137.7  Rx     00002902  8  00 18 00 00 FF FB 22 00 
   156)       139.5  Rx     00002901  8  FC 62 00 00 00 00 23 00 
   157)       139.7  Rx     00002902  8  00 18 00 00 FF FD 22 00 
   158)       139.8  Rx         0003  8  77 A2 D0 77 A2 D0 00 00 
   159)       139.9  Rx         0004  8  00 00 00 00 00 00 00 00 
   160)       140.0  Rx         0005  8  80 18 01 80 10 00 01 73 
   161)       140.2  Rx     00000801  8  00 00 00 7F FF 80 08 00 
   162)       140.3  Rx     00000802  8  00 00 00 7F FF 80 08 00 
   163)       141.5  Rx     00002901  8  FC 62 00 00 00 01 23 00 
   164)       141.7  Rx     00002902  8  00 18 00 00 FF FD 22 00 
   165)       143.5  Rx     00002901  8  FC 62 00 00 00 00 23 00 
   166)       143.7  Rx     00002902  8  00 18 00 00 FF FE 22 00 
   167)       143.8  Rx         0003  8  77 A2 D0 77 A2 D0 00 00 
   168)       143.9  Rx         0004  8  00 00 00 00 00 00 00 00 
   169)       144.1  Rx         0005  8  80 18 01 80 10 00 01 73 
   170)       144.2  Rx     00000801  8  00 00 00 7F FF 80 08 00 
   171)       144.4  Rx     00000802  8  00 00 00 7F FF 80 08 00 
   172)       145.5  Rx     00002901  8  FC 62 00 00 FF FE 23 00 
   173)       145.7  Rx     00002902  8  00 18 00 00 FF F9 22 00 
   174)       147.5  Rx     00002901  8  FC 62 00 00 00 00 23 00 
   175)       147.6  Rx     00002902  8  00 18 00 00 FF FB 22 00 
   176)       147.8  Rx         0003  8  77 A2 D0 77 A2 D0 00 00 
   177)       147.9  Rx         0004  8  00 00 00 00 00 00 00 00 
   178)       148.1  Rx         0005  8  80 18 01 80 10 00 01 73 
   179)       148.2  Rx     00000801  8  00 00 00 7F FF 80 08 00 
   180)       148.4  Rx     00000802  8  00 00 00 7F FF 80 08 00 
   181)       149.5  Rx     00002901  8  FC 62 00 00 00 00 23 00 
   182)       149.7  Rx     00002902  8  00 18 00 00 FF FC 22 00 
   183)       151.5  Rx     00002901  8  FC 62 00 00 00 01 23 00 
   184)       151.7  Rx     00002902  8  00 18 00 00 FF FB 22 00 
   185)       151.8  Rx         0003  8  77 A2 D0 77 A2 D0 00 00 
   186)       152.0  Rx         0004  8  00 00 00 00 00 00 00 00 
   187)       152.0  Rx         0005  8  80 18 01 80 10 00 01 73 
   188)       152.2  Rx     00000801  8  00 00 00 7F FF 80 08 00 
   189)       152.4  Rx     00000802  8  00 00 00 7F FF 80 08 00 
   190)       153.4  Rx     00002901  8  FC 62 00 00 FF FE 23 00 
   191)       153.7  Rx     00002902  8  00 18 00 00 FF FC 22 00 
   192)       155.5  Rx     00002901  8  FC 62 00 00 00 00 23 00 
   193)       155.7  Rx     00002902  8  00 18 00 00 FF FB 22 00 
   194)       155.8  Rx         0003  8  77 A2 D0 77 A2 D0 00 00 
   195)       155.9  Rx         0004  8  00 00 00 00 00 00 00 00 
   196)       156.0  Rx         0005  8  80 18 01 80 10 00 01 73 
   197)       156.2  Rx     00000801  8  00 00 00 7F FF 80 08 00 
   198)       156.3  Rx     00000802  8  00 00 00 7F FF 80 08 00 
   199)       157.5  Rx     00002901  8  FC 62 00 00 00 00 23 00 
   200)       157.7  Rx     00002902  8  00 18 00 00 FF FD 22 00 
   201)       159.5  Rx     00002901  8  FC 62 00 00 FF FE 23 00 
   202)       159.6  Rx     00002902  8  00 18 00 00 FF FB 22 00 
   203)       159.8  Rx         0003  8  77 A2 D0 77 A2 D0 00 00 
   204)       159.9  Rx         0004  8  00 00 00 00 00 00 00 00 
   205)       160.1  Rx         0005  8  80 18 01 80 10 00 01 72 
   206)       160.2  Rx     00000801  8  00 00 00 7F FF 80 08 00 
   207)       160.4  Rx     00000802  8  00 00 00 7F FF 80 08 00 
   208)       161.5  Rx     00002901  8  FC 62 00 00 00 00 23 00 
   209)       161.7  Rx     00002902  8  00 18 00 00 FF FD 22 00 
   210)       163.5  Rx     00002901  8  FC 62 00 00 00 00 23 00 
   211)       163.6  Rx     00002902  8  00 18 00 00 FF FC 22 00 
   212)       163.8  Rx         0003  8  77 A2 D0 77 A2 D0 00 00 
   213)       163.9  Rx         0004  8  00 00 00 00 00 00 00 00 
   214)       164.1  Rx         0005  8  80 18 01 80 10 00 01 73 
   215)       164.2  Rx     00000801  8  00 00 00 7F FF 80 08 00 
   216)       164.4  Rx     00000802  8  00 00 00 7F FF 80 08 00 
   217)       165.5  Rx     00002901  8  FC 62 00 00 00 00 23 00 
   218)       165.6  Rx     00002902  8  00 18 00 00 FF FF 22 00 
   219)       167.5  Rx     00002901  8  FC 62 00 00 00 01 23 00 
   220)       167.7  Rx     00002902  8  00 18 00 00 FF FA 22 00 
   221)       167.8  Rx         0003  8  77 A2 D0 77 A2 D0 00 00 
   222)       168.0  Rx         0004  8  00 00 00 00 00 00 00 00 
   223)       168.1  Rx         0005  8  80 18 01 80 10 00 01 73 
   224)       168.2  Rx     00000801  8  00 00 00 7F FF 80 08 00 
   225)       168.3  Rx     00000802  8  00 00 00 7F FF 80 08 00 
   226)       169.5  Rx     00002901  8  FC 62 00 00 FF FE 23 00 
   227)       169.7  Rx     00002902  8  00 18 00 00 FF FB 22 00 
   228)       171.5  Rx     00002901  8  FC 62 00 00 FF FF 23 00 
   229)       171.7  Rx     00002902  8  00 18 00 00 FF FB 22 00 
   230)       171.8  Rx         0003  8  77 A2 D0 77 A2 D0 00 00 
   231)       172.0  Rx         0004  8  00 00 00 00 00 00 00 00 
   232)       172.0  Rx         0005  8  80 18 01 80 10 00 01 73 
   233)       172.2  Rx     00000801  8  00 00 00 7F FF 80 08 00 
   234)       172.3  Rx     00000802  8  00 00 00 7F FF 80 08 00 
   235)       173.5  Rx     00002901  8  FC 62 00 00 00 00 23 00 
   236)       173.7  Rx     00002902  8  00 18 00 00 FF FF 22 00 
   237)       175.5  Rx     00002901  8  FC 62 00 00 00 00 23 00 
   238)       175.7  Rx     00002902  8  00 18 00 00 FF FE 22 00 
   239)       175.8  Rx         0003  8  77 A2 D0 77 A2 D0 00 00 
   240)       175.9  Rx         0004  8  00 00 00 00 00 00 00 00 
   241)       176.1  Rx         0005  8  80 18 01 80 10 00 01 73 
   242)       176.2  Rx     00000801  8  00 00 00 7F FF 80 08 00 
   243)       176.4  Rx     00000802  8  00 00 00 7F FF 80 08 00 
   244)       177.5  Rx     00002901  8  FC 62 00 00 00 00 23 00 
   245)       177.7  Rx     00002902  8  00 18 00 00 FF FC 22 00 
   246)       179.5  Rx     00002901  8  FC 62 00 00 00 00 23 00 
   247)       179.6  Rx     00002902  8  00 18 00 00 FF FD 22 00 
   248)       179.8  Rx         0003  8  77 A2 D0 77 A2 D0 00 00 
   249)       179.9  Rx         0004  8  00 00 00 00 00 00 00 00 
   250)       180.1  Rx         0005  8  80 18 01 80 10 00 01 73 
   251)       180.2  Rx     00000801  8  00 00 00 7F FF 80 08 00 
   252)       180.4  Rx     00000802  8  00 00 00 7F FF 80 08 00 
   253)       181.5  Rx     00002901  8  FC 62 00 00 00 00 23 00 
   254)       181.6  Rx     00002902  8  00 18 00 00 FF FC 22 00 
   255)       183.5  Rx     00002901  8  FC 62 00 00 FF FF 23 00 
   256)       183.7  Rx     00002902  8  00 18 00 00 FF FD 22 00 
   257)       183.8  Rx         0003  8  77 A2 D0 77 A2 D0 00 00 
   258)       184.0  Rx         0004  8  00 00 00 00 00 00 00 00 
   259)       184.1  Rx         0005  8  80 18 01 80 10 00 01 73 
   260)       184.2  Rx     00000801  8  00 00 00 7F FF 80 08 00 
   261)       184.3  Rx     00000802  8  00 00 00 7F FF 80 08 00 
   262)       185.5  Rx     00002901  8  FC 62 00 00 00 00 23 00 
   263)       185.7  Rx     00002902  8  00 18 00 00 FF FD 22 00 
   264)       187.5  Rx     00002901  8  FC 62 00 00 00 00 23 00 
   265)       187.7  Rx     00002902  8  00 18 00 00 FF FC 22 00 
   266)       187.8  Rx         0003  8  77 A2 D0 77 A2 D0 00 00 
   267)       188.0  Rx         0004  8  00 00 00 00 00 00 00 00 
   268)       188.0  Rx         0005  8  80 18 01 80 10 00 01 73 
   269)       188.2  Rx     00000801  8  00 00 00 7F FF 80 08 00 
   270)       188.3  Rx     00000802  8  00 00 00 7F FF 80 08 00 
   271)       189.5  Rx     00002901  8  FC 62 00 00 FF FF 23 00 
   272)       189.7  Rx     00002902  8  00 18 00 00 00 00 22 00 
   273)       191.5  Rx     00002901  8  FC 62 00 00 00 00 23 00 
   274)       191.7  Rx     00002902  8  00 18 00 00 FF FD 22 00 
   275)       191.8  Rx         0003  8  77 A2 D0 77 A2 D0 00 00 
   276)       191.9  Rx         0004  8  00 00 00 00 00 00 00 00 
   277)       192.1  Rx         0005  8  80 18 01 80 10 00 01 72 
   278)       192.2  Rx     00000801  8  00 00 00 7F FF 80 08 00 
   279)       192.4  Rx     00000802  8  00 00 00 7F FF 80 08 00 
   280)       193.5  Rx     00002901  8  FC 62 00 00 00 00 23 00 
   281)       193.7  Rx     00002902  8  00 18 00 00 FF FB 22 00 
   282)       195.5  Rx     00002901  8  FC 62 00 00 FF FF 23 00 
   283)       195.7  Rx     00002902  8  00 18 00 00 FF FE 22 00 
   284)       195.8  Rx         0003  8  77 A2 D0 77 A2 D0 00 00 
   285)       195.9  Rx         0004  8  00 00 00 00 00 00 00 00 
   286)       196.1  Rx         0005  8  80 18 01 80 10 00 01 73 
   287)       196.2  Rx     00000801  8  00 00 00 7F FF 80 08 00 
   288)       196.4  Rx     00000802  8  00 00 00 7F FF 80 08 00 
   289)       197.5  Rx     00002901  8  FC 62 00 00 FF FE 23 00 
   290)       197.6  Rx     00002902  8  00 18 00 00 FF FD 22 00 
   291)       199.5  Rx     00002901  8  FC 62 00 00 FF FF 23 00 
   292)       199.7  Rx     00002902  8  00 18 00 00 FF FD 22 00 
   293)       199.8  Rx         0003  8  77 A2 D0 77 A2 D0 00 00 
   294)       200.0  Rx         0004  8  00 00 00 00 00 00 00 00 
   295)       200.0  Rx         0005  8  80 18 01 80 10 00 01 73 
   296)       200.2  Rx     00000801  8  00 00 00 7F FF 80 08 00 
   297)       200.3  Rx     00000802  8  00 00 00 7F FF 80 08 00 
   298)       201.5  Rx     00002901  8  FC 62 00 00 00 00 23 00 
   299)       201.7  Rx     00002902  8  00 18 00 00 FF FD 22 00 
   300)       203.5  Rx     00002901  8  FC 62 00 00 00 01 23 00 
   301)       203.7  Rx     00002902  8  00 18 00 00 FF FD 22 00 
   302)       203.8  Rx         0003  8  77 A2 D0 77 A2 D0 00 00 
   303)       203.9  Rx         0004  8  00 00 00 00 00 00 00 00 
   304)       204.0  Rx         0005  8  80 18 01 80 10 00 01 73 
   305)       204.2  Rx     00000801  8  00 00 00 7F FF 80 08 00 
   306)       204.3  Rx     00000802  8  00 00 00 7F FF 80 08 00 
   307)       205.5  Rx     00002901  8  FC 62 00 00 00 00 23 00 
   308)       205.7  Rx     00002902  8  00 18 00 00 FF FD 22 00 
   309)       207.5  Rx     00002901  8  FC 62 00 00 00 00 23 00 
   310)       207.7  Rx     00002902  8  00 18 00 00 FF FB 22 00 
   311)       207.8  Rx         0003  8  77 A2 D0 77 A2 D0 00 00 
   312)       207.9  Rx         0004  8  00 00 00 00 00 00 00 00 
   313)       208.1  Rx         0005  8  80 18 01 80 10 00 01 74 
   314)       208.2  Rx     00000801  8  00 00 00 7F FF 80 08 00 
   315)       208.4  Rx     00000802  8  00 00 00 7F FF 80 08 00 
   316)       209.5  Rx     00002901  8  FC 62 00 00 00 00 23 00 
   317)       209.7  Rx     00002902  8  00 18 00 00 FF FE 22 00 
   318)       211.5  Rx     00002901  8  FC 62 00 00 00 00 23 00 
   319)       211.7  Rx     00002902  8  00 18 00 00 FF FC 22 00 
   320)       211.8  Rx         0003  8  77 A2 D0 77 A2 D0 00 00 
   321)       211.9  Rx         0004  8  00 00 00 00 00 00 00 00 
   322)       212.1  Rx         0005  8  80 18 01 80 10 00 01 74 
   323)       212.2  Rx     00000801  8  00 00 00 7F FF 80 08 00 
   324)       212.4  Rx     00000802  8  00 00 00 7F FF 80 08 00 
   325)       213.5  Rx     00002901  8  FC 62 00 00 FF FF 23 00 
   326)       213.6  Rx     00002902  8  00 18 00 00 FF FD 22 00 
   327)       215.5  Rx     00002901  8  FC 62 00 00 FF FF 23 00 
   328)       215.7  Rx     00002902  8  00 18 00 00 FF F8 22 00 
   329)       215.8  Rx         0003  8  77 A2 D0 77 A2 D0 00 00 
   330)       215.9  Rx         0004  8  00 00 00 00 00 00 00 00 
   331)       216.0  Rx         0005  8  80 18 01 80 10 00 01 73 
   332)       216.2  Rx     00000801  8  00 00 00 7F FF 80 08 00 
   333)       216.4  Rx     00000802  8  00 00 00 7F FF 80 08 00 
   334)       217.4  Rx     00002901  8  FC 62 00 00 00 00 23 00 
   335)       217.7  Rx     00002902  8  00 18 00 00 00 00 22 00 
   336)       219.5  Rx     00002901  8  FC 62 00 00 FF FF 23 00 
   337)       219.7  Rx     00002902  8  00 18 00 00 FF FA 22 00 
   338)       219.8  Rx         0003  8  77 A2 D0 77 A2 D0 00 00 
   339)       219.9  Rx         0004  8  00 00 00 00 00 00 00 00 
   340)       220.0  Rx         0005  8  80 18 01 80 10 00 01 74 
   341)       220.2  Rx     00000801  8  00 00 00 7F FF 80 08 00 
   342)       220.3  Rx     00000802  8  00 00 00 7F FF 80 08 00 
   343)       221.5  Rx     00002901  8  FC 62 00 00 00 00 23 00 
   344)       221.7  Rx     00002902  8  00 18 00 00 FF FD 22 00 
   345)       223.5  Rx     00002901  8  FC 62 00 00 00 00 23 00 
   346)       223.7  Rx     00002902  8  00 18 00 00 FF FB 22 00 
   347)       223.8  Rx         0003  8  77 A2 D0 77 A2 D0 00 00 
   348)       223.9  Rx         0004  8  00 00 00 00 00 00 00 00 
   349)       224.1  Rx         0005  8  80 18 01 80 10 00 01 73 
   350)       224.2  Rx     00000801  8  00 00 00 7F FF 80 08 00 
   351)       224.4  Rx     00000802  8  00 00 00 7F FF 80 08 00 
   352)       225.5  Rx     00002901  8  FC 62 00 00 FF FF 23 00 
   353)       225.7  Rx     00002902  8  00 18 00 00 FF FB 22 00 
   354)       227.5  Rx     00002901  8  FC 62 00 00 00 00 23 00 
   355)       227.7  Rx     00002902  8  00 18 00 00 FF FC 22 00 
   356)       227.8  Rx         0003  8  77 A2 D0 77 A2 D0 00 00 
   357)       227.9  Rx         0004  8  00 00 00 00 00 00 00 00 
   358)       228.1  Rx         0005  8  80 18 01 80 10 00 01 73 
   359)       228.2  Rx     00000801  8  00 00 00 7F FF 80 08 00 
   360)       228.4  Rx     00000802  8  00 00 00 7F FF 80 08 00 
   361)       229.5  Rx     00002901  8  FC 62 00 00 FF FD 23 00 
   362)       229.6  Rx     00002902  8  00 18 00 00 FF FC 22 00 
   363)       231.5  Rx     00002901  8  FC 62 00 00 00 01 23 00 
   364)       231.7  Rx     00002902  8  00 18 00 00 FF FC 22 00 
   365)       231.8  Rx         0003  8  77 A2 D0 77 A2 D0 00 00 
